Time [s],Channel 0,Channel 1,Channel 2,Channel 3,Channel 4,Channel 5,Channel 6,Channel 7
0.000000000,1,1,1,1,1,1,1,1
0.043080640,0,0,0,0,0,0,0,0
3.887110080,0,1,0,0,1,0,0,1
4.387109600,1,0,0,0,1,0,0,1
4.404993120,0,1,0,0,1,0,0,1
5.387134240,1,0,0,0,1,0,0,1
5.408267200,0,1,0,0,1,0,0,1
6.387150080,1,0,0,0,1,0,0,1
6.408282880,0,1,0,0,1,0,0,1
7.387157280,1,0,0,0,1,0,0,1
7.408316160,0,1,0,0,1,0,0,1
8.387173440,1,1,0,0,1,0,0,1
8.387173600,1,0,0,0,1,0,0,1
8.408262880,0,1,0,0,1,0,0,1
9.387188960,1,0,0,0,1,0,0,1
9.408365120,0,1,0,0,1,0,0,1
10.387127520,1,0,0,0,1,0,0,1
10.408303360,0,1,0,0,1,0,0,1
11.387220800,1,0,0,0,1,0,0,1
11.408422880,0,1,0,0,1,0,0,1
12.387314720,1,0,0,0,1,0,0,1
12.408439040,0,1,0,0,1,0,0,1
13.387321600,1,0,0,0,1,0,0,1
13.408549600,0,1,0,0,1,0,0,1
14.387337760,1,0,0,0,1,0,0,1
14.408574080,0,1,0,0,1,0,0,1
15.387361920,1,0,0,0,1,0,0,1
15.408607360,0,1,0,0,1,0,0,1
16.329571840,1,0,0,0,0,1,0,0
16.330263840,1,0,0,0,1,0,1,0
16.330465600,1,0,0,0,0,0,0,1
16.330487520,1,0,0,0,1,1,0,0
16.387368480,1,0,0,0,1,0,0,1
16.408640160,0,1,0,0,1,0,0,1
16.913780000,0,1,0,0,0,0,1,0
16.913780160,0,1,0,0,0,0,1,1
16.913780320,0,1,0,0,0,0,0,1
16.913780480,0,1,0,0,0,1,1,1
16.913780640,0,1,0,0,0,1,1,0
16.920407200,0,1,0,0,1,1,1,0
16.926026560,1,0,0,0,1,0,0,0
17.329598080,1,0,0,0,0,1,0,0
17.330278400,1,0,0,0,1,0,1,0
17.330481440,1,0,0,0,0,0,0,1
17.330504320,1,0,0,0,1,1,0,0
17.387367360,1,0,0,0,1,0,0,1
17.408578400,0,1,0,0,1,0,0,1
17.413698880,0,1,0,0,0,0,1,0
17.413699040,0,1,0,0,0,0,0,1
17.413699360,0,1,0,0,0,1,1,0
17.420328960,0,1,0,0,1,1,1,0
17.425947040,1,0,0,0,1,0,0,0
17.908586720,0,1,0,0,1,0,0,1
17.913710240,0,1,0,0,0,0,1,0
17.913710400,0,1,0,0,0,0,0,1
17.913710720,0,1,0,0,0,1,1,1
17.913710880,0,1,0,0,0,1,1,0
17.920336320,0,1,0,0,1,1,1,0
17.925955520,1,0,0,0,1,0,0,0
18.329594880,1,0,0,0,0,1,0,0
18.330284640,1,0,0,0,1,0,1,0
18.330488480,1,0,0,0,0,0,0,1
18.330510720,1,0,0,0,1,1,0,0
18.387382720,1,0,0,0,1,0,0,1
18.408689280,0,1,0,0,1,0,0,1
18.413810560,0,1,0,0,0,0,1,0
18.413810720,0,1,0,0,0,0,0,1
18.413811040,0,1,0,0,0,1,1,0
18.420439360,0,1,0,0,1,1,1,0
18.426057440,1,0,0,0,1,0,0,0
18.908697760,0,1,0,0,1,0,0,1
18.913820800,0,1,0,0,0,0,1,0
18.913821120,0,1,0,0,0,0,0,1
18.913821440,0,1,0,0,0,1,1,0
18.920447520,0,1,0,0,1,1,1,0
18.926066560,1,0,0,0,1,0,0,0
19.329605120,1,0,0,0,0,1,0,0
19.330290080,1,0,0,0,1,0,1,0
19.330487200,1,0,0,0,0,0,0,1
19.330509760,1,0,0,0,1,1,0,0
19.387407360,1,0,0,0,1,0,0,1
19.408713440,0,1,0,0,1,0,0,1
19.413833920,0,1,0,0,0,0,1,0
19.413834080,0,1,0,0,0,0,0,1
19.413834400,0,1,0,0,0,1,1,0
19.420463680,0,1,0,0,1,1,1,0
19.426082080,1,0,0,0,1,0,0,0
19.908722240,0,1,0,0,1,0,0,1
19.913845120,0,1,0,0,0,0,1,0
19.913845280,0,1,0,0,0,0,1,1
19.913845440,0,1,0,0,0,0,0,1
19.913845760,0,1,0,0,0,1,1,0
19.920471520,0,1,0,0,1,1,1,0
19.926090560,1,0,0,0,1,0,0,0
20.329540960,1,0,0,0,0,1,0,0
20.330227200,1,0,0,0,1,0,1,0
20.330424960,1,0,0,0,0,0,0,1
20.330447200,1,0,0,0,1,1,0,0
20.387414240,1,0,0,0,1,0,0,1
20.408720800,0,1,0,0,1,0,0,1
20.413840800,0,1,0,0,1,0,1,1
20.413840960,0,1,0,0,0,0,1,1
20.413841120,0,1,0,0,0,0,0,1
20.413841280,0,1,0,0,0,1,1,0
20.420470880,0,1,0,0,1,1,1,0
20.426088960,1,0,0,0,1,0,0,0
20.908651520,0,1,0,0,1,0,0,1
20.913774400,0,1,0,0,0,0,1,0
20.913774560,0,1,0,0,0,0,0,1
20.913774880,0,1,0,0,0,1,1,0
20.920400960,0,1,0,0,1,1,1,0
20.926020320,1,0,0,0,1,0,0,0
21.329636480,1,0,0,0,0,1,0,0
21.330319200,1,0,0,0,1,0,1,0
21.330518560,1,0,0,0,1,0,1,1
21.330518720,1,0,0,0,0,0,0,1
21.330540960,1,0,0,0,1,1,0,0
21.387439040,1,0,0,0,1,0,0,1
21.408649920,0,1,0,0,1,0,0,1
21.413770240,0,1,0,0,0,0,1,0
21.413770400,0,1,0,0,0,0,0,1
21.413770560,0,1,0,0,0,1,1,0
21.420400320,0,1,0,0,1,1,1,0
21.426018560,1,0,0,0,1,0,0,0
21.908753280,0,1,0,0,1,0,0,1
21.913876640,0,1,0,0,0,0,1,0
21.913876960,0,1,0,0,0,0,0,1
21.913877280,0,1,0,0,0,1,1,0
21.920503200,0,1,0,0,1,1,1,0
21.926122720,1,0,0,0,1,0,0,0
22.329633760,1,0,0,0,0,1,0,0
22.330316320,1,0,0,0,1,0,1,0
22.330517120,1,0,0,0,0,0,0,1
22.330540160,1,0,0,0,1,1,0,0
22.387454240,1,0,0,0,1,0,0,1
22.408752320,0,1,0,0,1,0,0,1
22.413872640,0,1,0,0,0,0,1,0
22.413872800,0,1,0,0,0,0,0,1
22.413873120,0,1,0,0,0,1,1,0
22.420502400,0,1,0,0,1,1,1,0
22.426121120,1,0,0,0,1,0,0,0
22.908769280,0,1,0,0,1,0,0,1
22.913892800,0,1,0,0,0,0,1,0
22.913892960,0,1,0,0,0,0,0,1
22.913893280,0,1,0,0,0,1,1,0
22.920519200,0,1,0,0,1,1,1,0
22.926138400,1,0,0,0,1,0,0,0
23.329721120,1,0,0,0,0,1,0,0
23.330408480,1,0,0,0,1,0,1,0
23.330610400,1,0,0,0,0,0,0,1
23.330632960,1,0,0,0,1,1,0,0
23.387470240,1,0,0,0,1,0,0,1
23.408785120,0,1,0,0,1,0,0,1
23.413905920,0,1,0,0,0,0,1,0
23.413906080,0,1,0,0,0,0,0,1
23.413906240,0,1,0,0,0,1,1,0
23.420535200,0,1,0,0,1,1,1,0
23.426153920,1,0,0,0,1,0,0,0
23.908793760,0,1,0,0,1,0,0,1
23.913917280,0,1,0,0,0,0,1,0
23.913917440,0,1,0,0,0,0,0,1
23.913917760,0,1,0,0,0,1,1,1
23.913917920,0,1,0,0,0,1,1,0
23.920543200,0,1,0,0,1,1,1,0
23.926162400,1,0,0,0,1,0,0,0
24.329739040,1,0,0,0,0,1,0,0
24.330431680,1,0,0,0,1,0,1,0
24.330635040,1,0,0,0,0,0,0,1
24.330657920,1,0,0,0,1,1,0,0
24.387468640,1,0,0,0,1,0,0,1
24.408714560,0,1,0,0,1,0,0,1
24.413834720,0,1,0,0,0,0,1,0
24.413834880,0,1,0,0,0,0,0,1
24.413835200,0,1,0,0,0,1,1,0
24.420464640,0,1,0,0,1,1,1,0
24.426083040,1,0,0,0,1,0,0,0
24.908826560,0,1,0,0,1,0,0,1
24.913949920,0,1,0,0,0,0,1,0
24.913950080,0,1,0,0,0,0,1,1
24.913950240,0,1,0,0,0,0,0,1
24.913950400,0,1,0,0,0,1,1,1
24.913950560,0,1,0,0,0,1,1,0
24.920576160,0,1,0,0,1,1,1,0
24.926195680,1,0,0,0,1,0,0,0
25.329846080,1,0,0,0,0,1,0,0
25.330532640,1,0,0,0,1,0,1,0
25.330823520,1,0,0,0,0,0,0,1
25.330846560,1,0,0,0,1,1,0,0
25.387475520,1,0,0,0,1,0,0,1
25.408738720,0,1,0,0,1,0,0,1
25.413859040,0,1,0,0,0,0,1,0
25.413859200,0,1,0,0,0,0,0,1
25.413859520,0,1,0,0,0,1,1,0
25.420488960,0,1,0,0,1,1,1,0
25.426107520,1,0,0,0,1,0,0,0
25.908833920,0,1,0,0,1,0,0,1
25.913956800,0,1,0,0,0,0,1,0
25.913956960,0,1,0,0,0,0,0,1
25.913957280,0,1,0,0,0,1,1,0
25.920669920,0,1,0,0,1,1,1,0
25.926288960,1,0,0,0,1,0,0,0
26.329854240,1,0,0,0,0,1,0,0
26.330537920,1,0,0,0,1,0,1,0
26.330821760,1,0,0,0,0,0,0,1
26.330844480,1,0,0,0,1,1,0,0
26.387491680,1,0,0,0,1,0,0,1
26.408841120,0,1,0,0,1,0,0,1
26.413961280,0,1,0,0,0,0,1,0
26.413961440,0,1,0,0,0,0,0,1
26.413961760,0,1,0,0,0,1,1,0
26.420677440,0,1,0,0,1,1,1,0
26.426296000,1,0,0,0,1,0,0,0
26.908866560,0,1,0,0,1,0,0,1
26.913989440,0,1,0,0,0,0,1,0
26.913989600,0,1,0,0,0,0,0,1
26.913990080,0,1,0,0,0,1,1,0
26.920702560,0,1,0,0,1,1,1,0
26.926321760,1,1,0,0,1,1,1,0
26.926321920,1,0,0,0,1,0,0,0
27.329862880,1,0,0,0,0,1,0,0
27.330552480,1,0,0,0,1,0,1,0
27.330838240,1,0,0,0,0,0,0,1
27.330860160,1,0,0,0,1,1,0,0
27.387334400,1,0,0,0,1,0,0,1
27.408873760,0,1,0,0,1,0,0,1
27.413995040,0,1,0,0,0,0,1,0
27.413995200,0,1,0,0,0,0,0,1
27.413995360,0,1,0,0,0,1,1,0
27.420710720,0,1,0,0,1,1,1,0
27.426328640,1,0,0,0,1,0,0,0
27.908891200,1,1,0,0,1,0,0,1
27.908891360,0,1,0,0,1,0,0,1
27.914013120,0,1,0,0,0,0,1,0
27.914013440,0,1,0,0,0,0,0,1
27.914013760,0,1,0,0,0,1,1,0
27.920727040,0,1,0,0,1,1,1,0
27.926346720,1,0,0,0,1,0,0,0
28.329967200,1,0,0,0,0,1,0,0
28.330653440,1,0,0,0,1,0,1,0
28.331025920,1,0,0,0,0,0,0,1
28.331048800,1,0,0,0,1,1,0,0
28.387523200,1,0,0,0,1,0,0,1
28.408889440,0,1,0,0,1,0,0,1
28.414009920,0,1,0,0,0,0,1,0
28.414010080,0,1,0,0,0,0,0,1
28.414010400,0,1,0,0,0,1,1,0
28.420726080,0,1,0,0,1,1,1,0
28.426344160,1,1,0,0,1,1,1,0
28.426344320,1,0,0,0,1,0,0,0
28.908906560,0,1,0,0,1,0,0,1
28.914030240,0,1,0,0,0,0,1,0
28.914030560,0,1,0,0,0,0,0,1
28.914030880,0,1,0,0,0,1,1,0
28.920829440,0,1,0,0,1,1,1,0
28.926448320,1,0,0,0,1,0,0,0
29.329886400,1,0,0,0,0,1,0,0
29.330572640,1,0,0,0,1,0,1,0
29.330946720,1,0,0,0,0,0,0,1
29.330968960,1,0,0,0,1,1,0,0
29.387529760,1,0,0,0,1,0,0,1
29.408905280,0,1,0,0,1,0,0,1
29.414026400,0,1,0,0,0,0,1,0
29.414026560,0,1,0,0,0,0,0,1
29.414026880,0,1,0,0,0,1,1,0
29.420828320,0,1,0,0,1,1,1,0
29.426446560,1,0,0,0,1,0,0,0
29.908914080,0,1,0,0,1,0,0,1
29.914037920,0,1,0,0,0,0,1,0
29.914038080,0,1,0,0,0,0,1,1
29.914038240,0,1,0,0,0,0,0,1
29.914038400,0,1,0,0,0,1,1,0
29.920836160,0,1,0,0,1,1,1,0
29.926455520,1,0,0,0,1,0,0,0
30.329898560,1,0,0,0,1,1,0,0
30.329898720,1,0,0,0,0,1,0,0
30.330578560,1,0,0,0,1,0,1,0
30.330953920,1,0,0,0,0,0,0,1
30.330976960,1,0,0,0,1,1,0,0
30.387545920,1,0,0,0,1,0,0,1
30.408929600,0,1,0,0,1,0,0,1
30.414049440,0,1,0,0,0,0,1,0
30.414049600,0,1,0,0,0,0,0,1
30.414049760,0,1,0,0,0,1,1,0
30.420852640,0,1,0,0,1,1,1,0
30.426471200,1,0,0,0,1,0,0,0
30.908946560,0,1,0,0,1,0,0,1
30.914069760,0,1,0,0,0,0,1,0
30.914070080,0,1,0,0,0,0,0,1
30.914070400,0,1,0,0,0,1,1,0
30.920869600,0,1,0,0,1,1,1,0
30.926488160,1,0,0,0,1,0,0,0
31.329991520,1,0,0,0,0,1,0,0
31.330670240,1,0,0,0,1,0,1,0
31.331047040,1,0,0,0,0,0,0,1
31.331069920,1,0,0,0,1,1,0,0
31.387569920,1,0,0,0,1,0,0,1
31.408954240,0,1,0,0,1,0,0,1
31.414074240,0,1,0,0,0,0,1,0
31.414074400,0,1,0,0,0,0,0,1
31.414074720,0,1,0,0,0,1,1,0
31.420877440,0,1,0,0,1,1,1,0
31.426495520,1,0,0,0,1,0,0,0
31.908979520,1,1,0,0,1,0,0,1
31.908979680,0,1,0,0,1,0,0,1
31.914103040,0,1,0,0,0,0,1,0
31.914103360,0,1,0,0,0,0,0,1
31.914103680,0,1,0,0,0,1,1,0
31.920902080,0,1,0,0,1,1,1,0
31.926521440,1,0,0,0,1,0,0,0
32.330244160,1,0,0,0,0,1,0,0
32.331022240,1,0,0,0,1,1,1,0
32.331022400,1,0,0,0,1,0,1,0
32.331650720,1,0,0,0,0,0,0,1
32.331673760,1,0,0,0,1,1,0,0
32.387577120,1,0,0,0,1,0,0,1
32.408891840,0,1,0,0,1,0,0,1
32.414011840,0,1,0,0,0,0,1,0
32.414012000,0,1,0,0,0,0,0,1
32.414012160,0,1,0,0,0,1,1,0
32.420814720,0,1,0,0,1,1,1,0
32.426433120,1,0,0,0,1,0,0,0
32.908995360,0,1,0,0,1,0,0,1
32.914117920,0,1,0,0,0,0,1,0
32.914118240,0,1,0,0,0,0,0,1
32.914118560,0,1,0,0,0,1,1,0
32.921176800,0,1,0,0,1,1,1,0
32.926796640,1,0,0,0,1,0,0,0
33.330265760,1,0,0,0,0,1,0,0
33.331036960,1,0,0,0,1,0,1,0
33.331666080,1,0,0,0,0,0,0,1
33.331688960,1,0,0,0,1,1,0,0
33.387592800,1,0,0,0,1,0,0,1
33.408994080,1,1,0,0,1,0,0,1
33.408994240,0,1,0,0,1,0,0,1
33.414114080,0,1,0,0,0,0,1,0
33.414114240,0,1,0,0,0,0,0,1
33.414114720,0,1,0,0,0,1,1,0
33.421176000,0,1,0,0,1,1,1,0
33.426794720,1,0,0,0,1,0,0,0
33.909019680,0,1,0,0,1,0,0,1
33.914143040,0,1,0,0,0,0,1,0
33.914143360,0,1,0,0,0,0,0,1
33.914143680,0,1,0,0,0,1,1,0
33.921201600,0,1,0,0,1,1,1,0
33.926820800,1,0,0,0,1,0,0,0
34.330178880,1,0,0,0,0,1,0,0
34.330956000,1,0,0,0,1,0,1,0
34.331586720,1,0,0,0,0,0,0,1
34.331609440,1,0,0,0,1,1,0,0
34.387608320,1,0,0,0,1,0,0,1
34.408940480,0,1,0,0,1,0,0,1
34.414061440,0,1,0,0,1,0,1,1
34.414061600,0,1,0,0,0,0,1,1
34.414061760,0,1,0,0,0,0,0,1
34.414061920,0,1,0,0,0,1,1,1
34.414062080,0,1,0,0,0,1,1,0
34.421122720,0,1,0,0,1,1,1,0
34.426741120,1,0,0,0,1,0,0,0
34.909052640,0,1,0,0,1,0,0,1
34.914176160,0,1,0,0,0,0,1,0
34.914176320,0,1,0,0,0,0,0,1
34.914176640,0,1,0,0,0,1,1,1
34.914176800,0,1,0,0,0,1,1,0
34.921234560,0,1,0,0,1,1,1,0
34.926853760,1,0,0,0,1,0,0,0
35.330183040,1,0,0,0,0,1,0,0
35.330961600,1,0,0,0,1,0,1,0
35.331593920,1,0,0,0,0,0,0,1
35.331616480,1,0,0,0,1,1,0,1
35.331616640,1,0,0,0,1,1,0,0
35.387529120,1,0,0,0,1,0,0,1
35.409059680,0,1,0,0,1,0,0,1
35.414180320,0,1,0,0,0,0,1,0
35.414180480,0,1,0,0,0,0,0,1
35.414180800,0,1,0,0,0,1,1,0
35.421242240,0,1,0,0,1,1,1,0
35.426860640,1,1,0,0,1,1,1,0
35.426860800,1,0,0,0,1,0,0,0
35.909077120,0,1,0,0,1,0,0,1
35.914199680,0,1,0,0,0,0,1,0
35.914200000,0,1,0,0,0,0,0,1
35.914200320,0,1,0,0,0,1,1,0
35.921258560,0,1,0,0,1,1,1,0
35.926877920,1,0,0,0,1,0,0,0
36.330296800,1,0,0,0,0,1,0,0
36.331062080,1,0,0,0,1,0,1,0
36.331695840,1,0,0,0,0,0,0,1
36.331717600,1,0,0,0,1,1,0,0
36.387631040,1,0,0,0,1,0,0,1
36.409084320,0,1,0,0,1,0,0,1
36.414204480,0,1,0,0,0,0,1,0
36.414204640,0,1,0,0,0,0,0,1
36.414204960,0,1,0,0,0,1,1,0
36.421266240,0,1,0,0,1,1,1,0
36.426884800,1,0,0,0,1,0,0,0
36.909092640,0,1,0,0,1,0,0,1
36.914216320,0,1,0,0,0,0,1,0
36.914216640,0,1,0,0,0,0,0,1
36.914216960,0,1,0,0,0,1,1,0
36.921274560,0,1,0,0,1,1,1,0
36.926893920,1,0,0,0,1,0,0,0
37.330301280,1,0,0,0,0,1,0,0
37.331076960,1,0,0,0,1,0,1,0
37.331711360,1,0,0,0,0,0,0,1
37.331734240,1,0,0,0,1,1,0,0
37.387655520,1,0,0,0,1,0,0,1
37.409004800,0,1,0,0,1,0,0,1
37.414124960,0,1,0,0,0,0,1,0
37.414125120,0,1,0,0,0,0,0,1
37.414125440,0,1,0,0,0,1,1,0
37.421187200,0,1,0,0,1,1,1,0
37.426805280,1,0,0,0,1,0,0,0
37.909021920,0,1,0,0,1,0,0,1
37.914145600,0,1,0,0,0,0,1,0
37.914145760,0,1,0,0,0,0,0,1
37.914146080,0,1,0,0,0,1,1,0
37.921203360,0,1,0,0,1,1,1,0
37.926822880,1,0,0,0,1,0,0,0
38.330330720,1,0,0,0,0,1,0,0
38.331100000,1,0,0,0,1,0,1,0
38.331735840,1,0,0,0,0,0,0,1
38.331758080,1,0,0,0,1,1,0,0
38.387671040,1,0,0,0,1,0,0,1
38.409124320,0,1,0,0,1,0,0,1
38.414244320,0,1,0,0,0,0,1,0
38.414244480,0,1,0,0,0,0,0,1
38.414244640,0,1,0,0,0,1,1,0
38.421306720,0,1,0,0,1,1,1,0
38.426924800,1,0,0,0,1,0,0,0
38.909141120,0,1,0,0,1,0,0,1
38.914264800,0,1,0,0,0,0,1,0
38.914265120,0,1,0,0,0,0,0,1
38.914265440,0,1,0,0,0,1,1,0
38.921322720,0,1,0,0,1,1,1,0
38.926942400,1,0,0,0,1,0,0,0
39.330325760,1,0,0,0,0,1,0,0
39.331105760,1,0,0,0,1,0,1,0
39.331734240,1,0,0,0,0,0,0,1
39.331756640,1,0,0,0,1,1,0,0
39.387686720,1,0,0,0,1,0,0,1
39.409139680,0,1,0,0,1,0,0,1
39.414260320,0,1,0,0,0,0,1,0
39.414260480,0,1,0,0,0,0,0,1
39.414260800,0,1,0,0,0,1,1,0
39.421322080,0,1,0,0,1,1,1,0
39.426940640,1,0,0,0,1,0,0,0
39.909156960,0,1,0,0,1,0,0,1
39.914279520,0,1,0,0,0,0,1,0
39.914279680,0,1,0,0,0,0,0,1
39.914280000,0,1,0,0,0,1,1,0
39.921338560,0,1,0,0,1,1,1,0
39.926957760,1,0,0,0,1,0,0,0
40.330341440,1,0,0,0,0,1,0,0
40.331111360,1,0,0,0,1,0,1,0
40.331741120,1,0,0,0,0,0,0,1
40.331763520,1,0,0,0,1,1,0,0
40.387702240,1,0,0,0,1,0,0,1
40.409164480,0,1,0,0,1,0,0,1
40.414284480,0,1,0,0,0,0,1,0
40.414284640,0,1,0,0,0,0,0,1
40.414284960,0,1,0,0,0,1,1,0
40.421346720,0,1,0,0,1,1,1,0
40.426964800,1,0,0,0,1,0,0,0
40.909181120,0,1,0,0,1,0,0,1
40.914303840,0,1,0,0,1,0,1,1
40.914304000,0,1,0,0,0,0,1,0
40.914304160,0,1,0,0,0,0,0,1
40.914304480,0,1,0,0,0,1,1,0
40.921362880,0,1,0,0,1,1,1,0
40.926982240,1,0,0,0,1,0,0,0
41.330352480,1,0,0,0,0,1,0,0
41.331116640,1,0,0,0,1,0,1,0
41.331748000,1,0,0,0,0,0,1,1
41.331748160,1,0,0,0,0,0,0,1
41.331771040,1,0,0,0,1,1,0,0
41.387709760,1,0,0,0,1,0,0,1
41.409179840,0,1,0,0,1,0,0,1
41.414300000,0,1,0,0,0,0,1,0
41.414300160,0,1,0,0,0,0,0,1
41.414300480,0,1,0,0,0,1,1,0
41.421361920,0,1,0,0,1,1,1,0
41.426980960,1,0,0,0,1,0,0,0
41.909197120,0,1,0,0,1,0,0,1
41.914319840,0,1,0,0,0,0,1,0
41.914320000,0,1,0,0,0,0,1,1
41.914320160,0,1,0,0,0,0,0,1
41.914320480,0,1,0,0,0,1,1,0
41.921378560,0,1,0,0,1,1,1,0
41.926997760,1,0,0,0,1,0,0,0
42.330367520,1,0,0,0,0,1,0,0
42.331131360,1,0,0,0,1,0,1,0
42.331764000,1,0,0,0,0,0,0,1
42.331786400,1,0,0,0,1,1,0,0
42.387724960,1,0,0,0,1,0,0,1
42.409204480,0,1,0,0,1,0,0,1
42.414324320,0,1,0,0,0,0,1,0
42.414324480,0,1,0,0,0,0,0,1
42.414324800,0,1,0,0,0,1,1,0
42.421386560,0,1,0,0,1,1,1,0
42.427004480,1,0,0,0,1,0,0,0
42.909212480,0,1,0,0,1,0,0,1
42.914335520,0,1,0,0,0,0,1,0
42.914335680,0,1,0,0,0,0,0,1
42.914336000,0,1,0,0,0,1,1,0
42.921394080,0,1,0,0,1,1,1,0
42.927013760,1,0,0,0,1,0,0,0
43.330373280,1,0,0,0,0,1,0,0
43.331137440,1,0,0,0,1,0,1,0
43.331770880,1,0,0,0,1,0,1,1
43.331771040,1,0,0,0,0,0,0,1
43.331793280,1,0,0,0,1,1,0,1
43.331793440,1,0,0,0,1,1,0,0
43.387749600,1,0,0,0,1,0,0,1
43.409219680,0,1,0,0,1,0,0,1
43.414340160,0,1,0,0,0,0,1,1
43.414340320,0,1,0,0,0,0,0,1
43.414340640,0,1,0,0,0,1,1,0
43.421401920,0,1,0,0,1,1,1,0
43.427020800,1,0,0,0,1,0,0,0
43.909237120,0,1,0,0,1,0,0,1
43.914359520,0,1,0,0,0,0,1,0
43.914359840,0,1,0,0,0,0,0,1
43.914360160,0,1,0,0,0,1,1,0
43.921418400,0,1,0,0,1,1,1,0
43.927038080,1,0,0,0,1,0,0,0
44.330381760,1,0,0,0,0,1,0,0
44.331151360,1,0,0,0,1,0,1,0
44.331786880,1,0,0,0,0,0,0,1
44.331808960,1,0,0,0,1,1,0,1
44.331809120,1,0,0,0,1,1,0,0
44.387756320,1,0,0,0,1,0,0,1
44.409244160,0,1,0,0,1,0,0,1
44.414364800,0,1,0,0,0,0,1,0
44.414364960,0,1,0,0,0,0,0,1
44.414365440,0,1,0,0,0,1,1,0
44.421426400,0,1,0,0,1,1,1,0
44.427044640,1,0,0,0,1,0,0,0
44.909261120,0,1,0,0,1,0,0,1
44.914384160,0,1,0,0,0,0,1,0
44.914384480,0,1,0,0,0,0,0,1
44.914384800,0,1,0,0,0,1,1,0
44.921442720,0,1,0,0,1,1,1,0
44.927062560,1,0,0,0,1,0,0,0
45.330401120,1,0,0,0,0,1,0,0
45.331165600,1,0,0,0,1,0,1,0
45.331802080,1,0,0,0,0,0,0,1
45.331825280,1,0,0,0,1,1,0,0
45.387780800,1,0,0,0,1,0,0,1
45.409173280,0,1,0,0,1,0,0,1
45.414293760,0,1,0,0,0,0,1,0
45.414293920,0,1,0,0,0,0,0,1
45.414294240,0,1,0,0,0,1,1,0
45.421355520,0,1,0,0,1,1,1,0
45.426974080,1,0,0,0,1,0,0,0
45.909277120,0,1,0,0,1,0,0,1
45.914399200,0,1,0,0,0,0,1,0
45.914399520,0,1,0,0,0,0,0,1
45.914399840,0,1,0,0,0,1,1,0
45.921458560,0,1,0,0,1,1,1,0
45.927077440,1,0,0,0,1,0,0,0
46.330401760,1,0,0,0,0,1,0,0
46.331180000,1,0,0,0,1,1,1,0
46.331180160,1,0,0,0,1,0,1,0
46.331809600,1,0,0,0,0,0,0,1
46.331832160,1,0,0,0,1,1,0,0
46.387787680,1,0,0,0,1,0,0,1
46.409283840,0,1,0,0,1,0,0,1
46.414403840,0,1,0,0,0,0,1,0
46.414404000,0,1,0,0,0,0,0,1
46.414404160,0,1,0,0,0,1,1,1
46.414404320,0,1,0,0,0,1,1,0
46.421466560,0,1,0,0,1,1,1,0
46.427084640,1,0,0,0,1,0,0,0
46.909292320,0,1,0,0,1,0,0,1
46.914415840,0,1,0,0,0,0,1,0
46.914416000,0,1,0,0,0,0,0,1
46.914416480,0,1,0,0,0,1,1,0
46.921473920,0,1,0,0,1,1,1,0
46.927093440,1,0,0,0,1,0,0,0
47.330342240,1,0,0,0,0,1,0,0
47.331108000,1,0,0,0,1,0,1,0
47.331738720,1,0,0,0,0,0,0,1
47.331761280,1,0,0,0,1,1,0,0
47.387803520,1,0,0,0,1,0,0,1
47.409299840,0,1,0,0,1,0,0,1
47.414419840,0,1,0,0,1,0,1,1
47.414420000,0,1,0,0,0,0,1,1
47.414420160,0,1,0,0,0,0,0,1
47.414420320,0,1,0,0,0,1,1,0
47.421481760,0,1,0,0,1,1,1,0
47.427100800,1,0,0,0,1,0,0,0
47.909308320,0,1,0,0,1,0,0,1
47.914431200,0,1,0,0,0,0,1,0
47.914431520,0,1,0,0,0,0,0,1
47.914431840,0,1,0,0,0,1,1,0
47.921489600,0,1,0,0,1,1,1,0
47.927109280,1,0,0,0,1,0,0,0
48.330333920,1,0,0,0,0,1,0,0
48.331113760,1,0,0,0,1,0,1,0
48.331745440,1,0,0,0,0,0,0,1
48.331768480,1,0,0,0,1,1,0,0
48.387637760,1,0,0,0,1,0,0,1
48.409315200,0,1,0,0,1,0,0,1
48.414435520,0,1,0,0,0,0,1,0
48.414435680,0,1,0,0,0,0,0,1
48.414436160,0,1,0,0,0,1,1,0
48.421498080,0,1,0,0,1,1,1,0
48.427116000,1,0,0,0,1,0,0,0
48.909332320,0,1,0,0,1,0,0,1
48.914455520,0,1,0,0,0,0,1,0
48.914455680,0,1,0,0,0,0,0,1
48.914456160,0,1,0,0,0,1,1,0
48.921513920,0,1,0,0,1,1,1,0
48.927133600,1,0,0,0,1,0,0,0
49.330425760,1,0,0,0,0,1,0,0
49.331205440,1,0,0,0,1,1,1,0
49.331205600,1,0,0,0,1,0,1,0
49.331839200,1,0,0,0,0,0,0,1
49.331862560,1,0,0,0,1,1,0,1
49.331862720,1,0,0,0,1,1,0,0
49.387817280,1,0,0,0,1,0,0,1
49.409348640,0,1,0,0,1,0,0,1
49.414468320,0,1,0,0,0,0,1,0
49.414468480,0,1,0,0,0,0,0,1
49.414468800,0,1,0,0,0,1,1,0
49.421530560,0,1,0,0,1,1,1,0
49.427148960,1,0,0,0,1,0,0,0
49.909365280,0,1,0,0,1,0,0,1
49.914487680,0,1,0,0,0,0,1,0
49.914488000,0,1,0,0,0,0,0,1
49.914488320,0,1,0,0,0,1,1,0
49.921547200,0,1,0,0,1,1,1,0
49.927166240,1,0,0,0,1,0,0,0
50.330451520,1,0,0,0,0,1,0,0
50.331228800,1,0,0,0,1,0,1,0
50.331863200,1,0,0,0,0,0,0,1
50.331885760,1,0,0,0,1,1,0,0
50.387841600,1,0,0,0,1,0,0,1
50.409372480,0,1,0,0,1,0,0,1
50.414492960,0,1,0,0,0,0,1,0
50.414493120,0,1,0,0,0,0,0,1
50.414493440,0,1,0,0,0,1,1,0
50.421554880,0,1,0,0,1,1,1,0
50.427173120,1,0,0,0,1,0,0,0
50.909389920,0,1,0,0,1,0,0,1
50.914512960,0,1,0,0,0,0,1,0
50.914513120,0,1,0,0,0,0,0,1
50.914513440,0,1,0,0,0,1,1,0
50.921571200,0,1,0,0,1,1,1,0
50.927191040,1,0,0,0,1,0,0,0
51.330463200,1,0,0,0,0,1,0,0
51.331234560,1,0,0,0,1,0,1,0
51.331870400,1,0,0,0,0,0,0,1
51.331892800,1,0,0,0,1,1,0,0
51.387848640,1,0,0,0,1,0,0,1
51.409319360,0,1,0,0,1,0,0,1
51.414439200,0,1,0,0,0,0,1,0
51.414439360,0,1,0,0,0,0,0,1
51.414439680,0,1,0,0,0,1,1,0
51.421501760,0,1,0,0,1,1,1,0
51.427119680,1,0,0,0,1,0,0,0
51.909413920,0,1,0,0,1,0,0,1
51.914536800,0,1,0,0,0,0,1,0
51.914537120,0,1,0,0,0,0,0,1
51.914537440,0,1,0,0,0,1,1,0
51.921595840,0,1,0,0,1,1,1,0
51.927214880,1,0,0,0,1,0,0,0
52.330491520,1,0,0,0,0,1,0,0
52.331257600,1,0,0,0,1,0,1,0
52.331894400,1,0,0,0,0,0,0,1
52.331917120,1,0,0,0,1,1,0,0
52.387777920,1,0,0,0,1,0,0,1
52.409421120,0,1,0,0,1,0,0,1
52.414542080,0,1,0,0,0,0,1,0
52.414542240,0,1,0,0,0,0,0,1
52.414542560,0,1,0,0,0,1,1,0
52.421603360,0,1,0,0,1,1,1,0
52.427221920,1,0,0,0,1,0,0,0
52.909438560,0,1,0,0,1,0,0,1
52.914561120,0,1,0,0,0,0,1,0
52.914561440,0,1,0,0,0,0,0,1
52.914561760,0,1,0,0,0,1,1,0
52.921620160,0,1,0,0,1,1,1,0
52.927238880,1,0,0,0,1,0,0,0
53.330493600,1,0,0,0,0,1,0,0
53.331262880,1,0,0,0,1,0,1,0
53.331893120,1,0,0,0,0,0,0,1
