Time [s],Channel 0,Channel 1,Channel 2,Channel 3,Channel 4,Channel 5,Channel 6,Channel 7
0.000000000,1,0,0,0,1,0,0,0
0.282208950,1,0,0,0,1,0,0,1
0.323368300,1,1,0,0,1,0,0,1
0.323368350,0,1,0,0,1,0,0,1
0.323394500,0,1,0,0,0,0,1,0
0.323394700,0,1,0,0,0,0,1,1
0.323394750,0,1,0,0,0,0,0,1
0.323395100,0,1,0,0,0,1,1,0
0.323395900,0,1,0,0,1,1,1,0
0.323400400,1,0,0,0,1,0,0,0
0.689852200,1,0,0,0,0,1,0,0
0.690805100,1,0,0,0,1,0,1,0
0.690806800,1,0,0,0,0,0,0,1
0.690830250,1,0,0,0,1,1,0,0
0.823387000,0,1,0,0,1,0,0,1
0.823413350,0,1,0,0,0,0,1,0
0.823413600,0,1,0,0,0,0,0,1
0.823413950,0,1,0,0,0,1,1,0
0.823414950,0,1,0,0,1,1,1,0
0.823419250,1,0,0,0,1,0,0,0
1.282223150,1,0,0,0,1,0,0,1
1.323391900,1,1,0,0,1,0,0,1
1.323391950,0,1,0,0,1,0,0,1
1.323418150,0,1,0,0,0,0,1,0
1.323418350,0,1,0,0,0,0,0,1
1.323418750,0,1,0,0,0,1,1,0
1.323419600,0,1,0,0,1,1,1,0
1.323423750,1,0,0,0,1,0,0,0
1.689869250,1,0,0,0,1,1,0,0
1.689869300,1,0,0,0,0,1,0,0
1.690809550,1,0,0,0,1,1,1,0
1.690809600,1,0,0,0,1,0,1,0
1.690811250,1,0,0,0,1,0,1,1
1.690811300,1,0,0,0,0,0,0,1
1.690834850,1,0,0,0,1,1,0,0
1.823405050,0,1,0,0,1,0,0,1
1.823431900,0,1,0,0,1,0,1,1
1.823431950,0,1,0,0,0,0,1,0
1.823432150,0,1,0,0,0,0,0,1
1.823432500,0,1,0,0,0,1,1,1
1.823432550,0,1,0,0,0,1,1,0
1.823433750,0,1,0,0,1,1,1,0
1.823438100,1,1,0,0,1,1,1,0
1.823438150,1,0,0,0,1,0,0,0
2.282237150,1,0,0,0,1,0,0,1
2.323417500,0,1,0,0,1,0,0,1
2.323443500,0,1,0,0,0,0,1,0
2.323443750,0,1,0,0,0,0,0,1
2.323444100,0,1,0,0,0,1,1,0
2.323444950,0,1,0,0,1,1,1,0
2.323449300,1,0,0,0,1,0,0,0
2.689876450,1,0,0,0,0,1,0,0
2.690814200,1,0,0,0,1,0,1,0
2.690815850,1,0,0,0,0,0,0,1
2.690839550,1,0,0,0,1,1,0,0
2.823431600,0,1,0,0,1,0,0,1
2.823458100,0,1,0,0,1,0,1,1
2.823458150,0,1,0,0,0,0,1,0
2.823458500,0,1,0,0,0,0,0,1
2.823458900,0,1,0,0,0,1,1,0
2.823460050,0,1,0,0,1,1,1,0
2.823464300,1,0,0,0,1,0,0,0
3.282255400,1,0,0,0,1,0,0,1
3.323442650,0,1,0,0,1,0,0,1
3.323468700,0,1,0,0,0,0,1,0
3.323468950,0,1,0,0,0,0,0,1
3.323469350,0,1,0,0,0,1,1,0
3.323470200,0,1,0,0,1,1,1,0
3.323475050,1,0,0,0,1,0,0,0
3.689874050,1,0,0,0,0,1,0,0
3.690818600,1,0,0,0,1,0,1,0
3.690820300,1,0,0,0,1,0,1,1
3.690820350,1,0,0,0,0,0,0,1
3.690844250,1,0,0,0,1,1,0,0
3.823449350,0,1,0,0,1,0,0,1
3.823476350,0,1,0,0,0,0,1,0
3.823476600,0,1,0,0,0,0,0,1
3.823476950,0,1,0,0,0,1,1,0
3.823477800,0,1,0,0,1,1,1,0
3.823482150,1,0,0,0,1,0,0,0
4.282272250,1,0,0,0,1,0,0,1
4.323458450,0,1,0,0,1,0,0,1
4.323485200,0,1,0,0,0,0,1,0
4.323485400,0,1,0,0,0,0,1,1
4.323485450,0,1,0,0,0,0,0,1
4.323485800,0,1,0,0,0,1,1,0
4.323486650,0,1,0,0,1,1,1,0
4.323490950,1,0,0,0,1,0,0,0
4.689882900,1,0,0,0,0,1,0,0
4.690832550,1,0,0,0,1,0,1,0
4.690834200,1,0,0,0,0,0,1,1
4.690834250,1,0,0,0,0,0,0,1
4.690856850,1,0,0,0,1,1,0,0
4.823461650,1,1,0,0,1,1,0,1
4.823461700,0,1,0,0,1,0,0,1
4.823488050,0,1,0,0,0,0,1,0
4.823488250,0,1,0,0,0,0,1,1
4.823488300,0,1,0,0,0,0,0,1
4.823488600,0,1,0,0,0,1,1,0
4.823489850,0,1,0,0,1,1,1,0
4.823493700,1,0,0,0,1,0,0,0
5.282277800,1,0,0,0,1,0,0,1
5.323463250,0,1,0,0,1,0,0,1
5.323489750,0,1,0,0,0,0,1,0
5.323489950,0,1,0,0,0,0,1,1
5.323490000,0,1,0,0,0,0,0,1
5.323490350,0,1,0,0,0,1,1,0
5.323491200,0,1,0,0,1,1,1,0
5.323495450,1,1,0,0,1,0,1,0
5.323495500,1,0,0,0,1,0,0,0
5.689891650,1,0,0,0,0,1,0,0
5.690836950,1,0,0,0,1,0,1,0
5.690838650,1,0,0,0,0,0,0,1
5.690862250,1,0,0,0,1,1,0,0
5.823481200,0,1,0,0,1,0,0,1
5.823508550,0,1,0,0,0,0,1,0
5.823508900,0,1,0,0,0,0,0,1
5.823509200,0,1,0,0,0,1,1,0
5.823510050,0,1,0,0,1,1,1,0
5.823514200,1,0,0,0,1,0,0,0
6.282283200,1,0,0,0,1,0,0,1
6.323483650,1,1,0,0,1,0,0,1
6.323483700,0,1,0,0,1,0,0,1
6.323509750,0,1,0,0,0,0,1,0
6.323510000,0,1,0,0,0,0,0,1
6.323510350,0,1,0,0,0,1,1,0
6.323511200,0,1,0,0,1,1,1,0
6.323515800,1,0,0,0,1,0,0,0
6.689894750,1,0,0,0,0,1,0,0
6.690841100,1,0,0,0,1,0,1,0
6.690842800,1,0,0,0,0,0,0,1
6.690866800,1,0,0,0,1,1,0,0
6.823502650,1,1,0,0,1,1,0,1
6.823502700,0,1,0,0,1,0,0,1
6.823529100,0,1,0,0,0,0,1,0
6.823529350,0,1,0,0,0,0,0,1
6.823529650,0,1,0,0,0,1,1,0
6.823530500,0,1,0,0,1,1,1,0
6.823535100,1,0,0,0,1,0,0,0
7.282297500,1,0,0,0,1,0,0,1
7.323504400,0,1,0,0,1,0,0,1
7.323530400,0,1,0,0,0,0,1,0
7.323530650,0,1,0,0,0,0,0,1
7.323531000,0,1,0,0,0,1,1,0
7.323532200,0,1,0,0,1,1,1,0
7.323536300,1,0,0,0,1,0,0,0
7.689916300,1,0,0,0,1,1,0,0
7.689916350,1,0,0,0,0,1,0,0
7.690854500,1,0,0,0,1,0,1,0
7.690856200,1,0,0,0,0,0,0,1
7.690879500,1,0,0,0,1,1,0,0
7.823523550,0,1,0,0,1,0,0,1
7.823549900,0,1,0,0,0,0,1,1
7.823549950,0,1,0,0,0,0,1,0
7.823550150,0,1,0,0,0,0,0,1
7.823550500,0,1,0,0,0,1,1,0
7.823551350,0,1,0,0,1,1,1,0
7.823555300,1,1,0,0,1,0,0,0
7.823555350,1,0,0,0,1,0,0,0
8.282315650,1,0,0,0,1,0,0,1
8.323527750,0,1,0,0,1,0,0,1
8.323554350,0,1,0,0,0,0,1,0
8.323554600,0,1,0,0,0,0,0,1
8.323554950,0,1,0,0,0,1,1,1
8.323555000,0,1,0,0,0,1,1,0
8.323555800,0,1,0,0,1,1,1,0
8.323560200,1,0,0,0,1,0,0,0
8.689906450,1,0,0,0,0,1,0,0
8.690858650,1,0,0,0,1,0,1,0
8.690860650,1,0,0,0,0,0,0,1
8.690883900,1,0,0,0,1,1,0,0
8.823546400,1,1,0,0,1,1,0,1
8.823546450,0,1,0,0,1,0,0,1
8.823573050,0,1,0,0,0,0,1,0
8.823573300,0,1,0,0,0,0,0,1
8.823573650,0,1,0,0,0,1,1,0
8.823574500,0,1,0,0,1,1,1,0
8.823578550,1,0,0,0,1,0,0,0
9.282325750,1,0,0,0,1,0,0,1
9.323560100,1,1,0,0,1,0,0,1
9.323560150,0,1,0,0,1,0,0,1
9.323586200,0,1,0,0,1,0,1,1
9.323586250,0,1,0,0,0,0,1,0
9.323586450,0,1,0,0,0,0,0,1
9.323586800,0,1,0,0,0,1,1,1
9.323586850,0,1,0,0,0,1,1,0
9.323587650,0,1,0,0,1,1,1,0
9.323591750,1,0,0,0,1,0,0,0
9.689921500,1,0,0,0,0,1,0,0
9.690872150,1,0,0,0,1,1,1,0
9.690872200,1,0,0,0,1,0,1,0
9.690873800,1,0,0,0,1,0,1,1
9.690873850,1,0,0,0,0,0,0,1
9.690897500,1,0,0,0,1,1,0,0
9.823568800,0,1,0,0,1,0,0,1
9.823595300,0,1,0,0,0,0,1,0
9.823595650,0,1,0,0,0,0,0,1
9.823595950,0,1,0,0,0,1,1,1
9.823596000,0,1,0,0,0,1,1,0
9.823596800,0,1,0,0,1,1,1,0
9.823601150,1,0,0,0,1,0,0,0
10.282331800,1,0,0,0,1,0,0,1
10.323569550,1,1,0,0,1,0,0,1
10.323569600,0,1,0,0,1,0,0,1
10.323596150,0,1,0,0,1,0,1,1
10.323596200,0,1,0,0,0,0,1,0
10.323596450,0,1,0,0,0,0,0,1
10.323596750,0,1,0,0,0,1,1,1
10.323596800,0,1,0,0,0,1,1,0
10.323597600,0,1,0,0,1,1,1,0
10.323601900,1,0,0,0,1,0,0,0
10.689935150,1,0,0,0,0,1,0,0
10.690876100,1,0,0,0,1,0,1,0
10.690877750,1,0,0,0,0,0,1,1
10.690877800,1,0,0,0,0,0,0,1
10.690901500,1,0,0,0,1,1,0,0
10.823579450,0,1,0,0,1,0,0,1
10.823605900,0,1,0,0,0,0,1,0
10.823606150,0,1,0,0,0,0,0,1
10.823606500,0,1,0,0,0,1,1,0
10.823607400,0,1,0,0,1,1,1,0
10.823611750,1,0,0,0,1,0,0,0
11.282347350,1,0,0,0,1,0,0,1
11.323596000,0,1,0,0,1,0,0,1
11.323622450,0,1,0,0,0,0,1,0
11.323622700,0,1,0,0,0,0,0,1
11.323623050,0,1,0,0,0,1,1,0
11.323623850,0,1,0,0,1,1,1,0
11.323628200,1,0,0,0,1,0,0,0
11.689961400,1,0,0,0,0,1,0,0
11.690898500,1,0,0,0,1,0,1,0
11.690900500,1,0,0,0,0,0,0,1
11.690923700,1,0,0,0,1,1,0,1
11.690923750,1,0,0,0,1,1,0,0
11.823615750,1,1,0,0,1,1,0,1
11.823615800,0,1,0,0,1,0,0,1
11.823643300,0,1,0,0,0,0,1,0
11.823643550,0,1,0,0,0,0,0,1
11.823643850,0,1,0,0,0,1,1,1
11.823643900,0,1,0,0,0,1,1,0
11.823644750,0,1,0,0,1,1,1,0
11.823649150,1,0,0,0,1,0,0,0
12.282365250,1,0,0,0,1,0,0,1
12.323615250,0,1,0,0,1,0,0,1
12.323642200,0,1,0,0,0,0,1,0
12.323642450,0,1,0,0,0,0,0,1
12.323642800,0,1,0,0,0,1,1,0
12.323643650,0,1,0,0,1,1,1,0
12.323648400,1,0,0,0,1,0,0,0
12.689960050,1,0,0,0,0,1,0,0
12.690911600,1,0,0,0,1,0,1,0
12.690913300,1,0,0,0,0,0,0,1
12.690936650,1,0,0,0,1,1,0,0
12.823621350,1,1,0,0,1,1,0,1
12.823621400,0,1,0,0,1,0,0,1
12.823647550,0,1,0,0,1,0,1,1
12.823647600,0,1,0,0,0,0,1,0
12.823647800,0,1,0,0,0,0,0,1
12.823648150,0,1,0,0,0,1,1,0
12.823648950,0,1,0,0,1,1,1,0
12.823653450,1,1,0,0,1,1,1,0
12.823653500,1,0,0,0,1,0,0,0
13.282378750,1,0,0,0,1,0,0,1
13.323628150,0,1,0,0,1,0,0,1
13.323653800,0,1,0,0,0,0,1,0
13.323654050,0,1,0,0,0,0,0,1
13.323654400,0,1,0,0,0,1,1,0
13.323655250,0,1,0,0,1,1,1,0
13.323659800,1,0,0,0,1,0,0,0
13.689975750,1,0,0,0,0,1,0,0
13.690924200,1,0,0,0,1,0,1,0
13.690925900,1,0,0,0,0,0,1,1
13.690925950,1,0,0,0,0,0,0,1
13.690949900,1,0,0,0,1,1,0,0
13.823640450,1,1,0,0,1,1,0,1
13.823640500,0,1,0,0,1,0,0,1
13.823666700,0,1,0,0,0,0,1,0
13.823666950,0,1,0,0,0,0,0,1
13.823667300,0,1,0,0,0,1,1,0
13.823668200,0,1,0,0,1,1,1,0
13.823672800,1,0,0,0,1,0,0,0
14.282385550,1,0,0,0,1,0,0,1
14.323642650,1,1,0,0,1,0,0,1
14.323642700,0,1,0,0,1,0,0,1
14.323669200,0,1,0,0,0,0,1,0
14.323669450,0,1,0,0,0,0,0,1
14.323669800,0,1,0,0,0,1,1,0
14.323670650,0,1,0,0,1,1,1,0
14.323675000,1,0,0,0,1,0,0,0
14.689979300,1,0,0,0,0,1,0,0
14.690928300,1,0,0,0,1,0,1,0
14.690929950,1,0,0,0,0,0,1,1
14.690930000,1,0,0,0,0,0,0,1
14.690953500,1,0,0,0,1,1,0,0
14.823659950,0,1,0,0,1,0,0,1
14.823686950,0,1,0,0,1,0,1,1
14.823687000,0,1,0,0,0,0,1,0
14.823687200,0,1,0,0,0,0,0,1
14.823687550,0,1,0,0,0,1,1,0
14.823688450,0,1,0,0,1,1,1,0
14.823692750,1,1,0,0,1,1,1,0
14.823692800,1,0,0,0,1,0,0,0
15.282389850,1,0,0,0,1,0,0,1
15.323664700,0,1,0,0,1,0,0,1
15.323690700,0,1,0,0,0,0,1,0
15.323690950,0,1,0,0,0,0,0,1
15.323691300,0,1,0,0,0,1,1,0
15.323692150,0,1,0,0,1,1,1,0
15.323696650,1,0,0,0,1,0,0,0
15.689991250,1,0,0,0,1,1,0,0
15.689991300,1,0,0,0,0,1,0,0
15.690932300,1,0,0,0,1,0,1,0
15.690934350,1,0,0,0,0,0,0,1
15.690956900,1,0,0,0,1,1,0,0
15.823674700,1,1,0,0,1,1,0,1
15.823674750,0,1,0,0,1,0,0,1
15.823701600,0,1,0,0,0,0,1,0
15.823701950,0,1,0,0,0,0,0,1
15.823702300,0,1,0,0,0,1,1,0
15.823703150,0,1,0,0,1,1,1,0
15.823707450,1,0,0,0,1,0,0,0
16.282400600,1,0,0,0,1,0,0,1
16.323686300,0,1,0,0,1,0,0,1
16.323712850,0,1,0,0,0,0,1,0
16.323713100,0,1,0,0,0,0,0,1
16.323713450,0,1,0,0,0,1,1,0
16.323714300,0,1,0,0,1,1,1,0
16.323718700,1,1,0,0,1,1,1,0
16.323718750,1,0,0,0,1,0,0,0
16.689999050,1,0,0,0,0,1,0,0
16.690937200,1,0,0,0,1,0,1,0
16.690938850,1,0,0,0,0,0,0,1
16.690962200,1,0,0,0,1,1,0,0
16.823693000,1,1,0,0,1,1,0,1
16.823693050,0,1,0,0,1,0,0,1
16.823720200,0,1,0,0,0,0,1,0
16.823720400,0,1,0,0,0,0,1,1
16.823720450,0,1,0,0,0,0,0,1
16.823720750,0,1,0,0,0,1,1,0
16.823721600,0,1,0,0,1,1,1,0
16.823726200,1,0,0,0,1,0,0,0
17.282407750,1,0,0,0,1,0,0,1
17.323697900,0,1,0,0,1,0,0,1
17.323723900,0,1,0,0,0,0,1,0
17.323724150,0,1,0,0,0,0,0,1
17.323724500,0,1,0,0,0,1,1,0
17.323725350,0,1,0,0,1,1,1,0
17.323729650,1,1,0,0,1,0,1,0
17.323729700,1,0,0,0,1,0,0,0
17.689997650,1,0,0,0,0,1,0,0
17.690949950,1,0,0,0,1,0,1,0
17.690951650,1,0,0,0,0,0,0,1
17.690975150,1,0,0,0,1,1,0,0
17.823706200,1,1,0,0,1,0,0,1
17.823706250,0,1,0,0,1,0,0,1
17.823732450,0,1,0,0,0,0,1,0
17.823732700,0,1,0,0,0,0,0,1
17.823733050,0,1,0,0,0,1,1,0
17.823733900,0,1,0,0,1,1,1,0
17.823738750,1,1,0,0,1,1,1,0
17.823738800,1,0,0,0,1,0,0,0
18.282418400,1,0,0,0,1,0,0,1
18.323707950,0,1,0,0,1,0,0,1
18.323734050,0,1,0,0,0,0,1,0
18.323734250,0,1,0,0,0,0,0,1
18.323734650,0,1,0,0,0,1,1,0
18.323735500,0,1,0,0,1,1,1,0
18.323740200,1,0,0,0,1,0,0,0
18.690015950,1,0,0,0,0,1,0,0
18.690962700,1,0,0,0,1,0,1,0
18.690964250,1,0,0,0,0,0,0,1
18.690987550,1,0,0,0,1,1,0,0
18.823719450,1,1,0,0,1,1,0,1
18.823719500,0,1,0,0,1,0,0,1
18.823746050,0,1,0,0,1,0,1,1
18.823746100,0,1,0,0,0,0,1,0
18.823746650,0,1,0,0,0,0,1,1
18.823746700,0,1,0,0,0,0,0,1
18.823747000,0,1,0,0,0,1,1,0
18.823747850,0,1,0,0,1,1,1,0
18.823752200,1,0,0,0,1,0,0,0
19.282431050,1,0,0,0,1,0,0,1
19.323734900,1,1,0,0,1,0,0,1
19.323734950,0,1,0,0,1,0,0,1
19.323761550,0,1,0,0,0,0,1,0
19.323761750,0,1,0,0,0,0,0,1
19.323762150,0,1,0,0,0,1,1,0
19.323763000,0,1,0,0,1,1,1,0
19.323767200,1,1,0,0,1,1,1,0
19.323767250,1,0,0,0,1,0,0,0
19.690018300,1,0,0,0,0,1,0,0
19.690967150,1,0,0,0,1,0,1,0
19.690969150,1,0,0,0,0,0,0,1
19.690992800,1,0,0,0,1,1,0,0
19.823750700,0,1,0,0,1,0,0,1
19.823778000,0,1,0,0,0,0,1,0
19.823778150,0,1,0,0,0,0,0,1
19.823778400,0,1,0,0,0,1,1,0
19.823779250,0,1,0,0,1,1,1,0
19.823783850,1,0,0,0,1,0,0,0
20.282440350,1,0,0,0,1,0,0,1
20.323755150,1,1,0,0,1,0,0,1
20.323755200,0,1,0,0,1,0,0,1
20.323781950,0,1,0,0,0,0,1,0
20.323782150,0,1,0,0,0,0,0,1
20.323782500,0,1,0,0,0,1,1,0
20.323783350,0,1,0,0,1,1,1,0
20.323787900,1,0,0,0,1,0,0,0
20.690027300,1,0,0,0,0,1,0,0
20.690979950,1,0,0,0,1,0,1,0
20.690981600,1,0,0,0,1,0,1,1
20.690981650,1,0,0,0,0,0,0,1
20.691004550,1,0,0,0,1,1,0,0
20.823772300,0,1,0,0,1,0,0,1
20.823798850,0,1,0,0,0,0,1,0
20.823799050,0,1,0,0,0,0,0,1
20.823799350,0,1,0,0,0,1,1,1
20.823799400,0,1,0,0,0,1,1,0
20.823800200,0,1,0,0,1,1,1,0
20.823804450,1,0,0,0,1,0,0,0
21.282446050,1,0,0,0,1,0,0,1
21.323775900,1,1,0,0,1,0,0,1
21.323775950,0,1,0,0,1,0,0,1
21.323802300,0,1,0,0,1,0,1,1
21.323802350,0,1,0,0,0,0,1,0
21.323802550,0,1,0,0,0,0,0,1
21.323802900,0,1,0,0,0,1,1,1
21.323802950,0,1,0,0,0,1,1,0
21.323804150,0,1,0,0,1,1,1,0
21.323808150,1,0,0,0,1,0,0,0
21.690046850,1,0,0,0,0,1,0,0
21.690992900,1,0,0,0,1,0,1,0
21.690994600,1,0,0,0,1,0,1,1
21.690994650,1,0,0,0,0,0,0,1
21.691018450,1,0,0,0,1,1,0,0
21.823780700,0,1,0,0,1,0,0,1
21.823806950,0,1,0,0,1,0,1,1
21.823807000,0,1,0,0,0,0,1,0
21.823807200,0,1,0,0,0,0,0,1
21.823807550,0,1,0,0,0,1,1,1
21.823807600,0,1,0,0,0,1,1,0
21.823808400,0,1,0,0,1,1,1,0
21.823812850,1,0,0,0,1,0,0,0
22.282452700,1,0,0,0,1,0,0,1
22.323794900,0,1,0,0,1,0,0,1
22.323820650,0,1,0,0,0,0,1,0
22.323820900,0,1,0,0,0,0,0,1
22.323821250,0,1,0,0,0,1,1,0
22.323822350,0,1,0,0,1,1,1,0
22.323826750,1,0,0,0,1,0,0,0
22.690055150,1,0,0,0,0,1,0,0
22.690996400,1,0,0,0,1,0,1,0
22.690998100,1,0,0,0,0,0,0,1
22.691021450,1,0,0,0,1,1,0,0
22.823809000,1,1,0,0,1,0,0,1
22.823809050,0,1,0,0,1,0,0,1
22.823836400,0,1,0,0,0,0,1,0
22.823836750,0,1,0,0,0,0,1,1
22.823836800,0,1,0,0,0,0,0,1
22.823837100,0,1,0,0,0,1,1,0
22.823837950,0,1,0,0,1,1,1,0
22.823842200,1,0,0,0,1,0,0,0
23.282465600,1,0,0,0,1,0,0,1
23.323818700,0,1,0,0,1,0,0,1
23.323844900,0,1,0,0,0,0,1,0
23.323845100,0,1,0,0,0,0,0,1
23.323845450,0,1,0,0,0,1,1,0
23.323846350,0,1,0,0,1,1,1,0
23.323850450,1,0,0,0,1,0,0,0
23.690058500,1,0,0,0,0,1,0,0
23.691009200,1,0,0,0,1,1,1,0
23.691009250,1,0,0,0,1,0,1,0
23.691011200,1,0,0,0,0,0,0,1
23.691034050,1,0,0,0,1,1,0,0
23.823836850,0,1,0,0,1,0,0,1
23.823863550,0,1,0,0,0,0,1,0
23.823863800,0,1,0,0,0,0,0,1
23.823864100,0,1,0,0,0,1,1,1
23.823864150,0,1,0,0,0,1,1,0
23.823865000,0,1,0,0,1,1,1,0
23.823869900,1,1,0,0,1,1,1,0
23.823869950,1,0,0,0,1,0,0,0
24.282477050,1,0,0,0,1,0,0,1
24.323851050,0,1,0,0,1,0,0,1
24.323876750,0,1,0,0,0,0,1,0
24.323876950,0,1,0,0,0,0,0,1
24.323877300,0,1,0,0,0,1,1,0
24.323878150,0,1,0,0,1,1,1,0
24.323883050,1,0,0,0,1,0,0,0
24.690070450,1,0,0,0,1,1,0,0
24.690070500,1,0,0,0,0,1,0,0
24.691014100,1,0,0,0,1,0,1,0
24.691015750,1,0,0,0,0,0,0,1
24.691039000,1,0,0,0,1,1,0,0
24.823856150,0,1,0,0,1,0,0,1
24.823882350,0,1,0,0,0,0,1,0
24.823882550,0,1,0,0,0,0,1,1
24.823882600,0,1,0,0,0,0,0,1
24.823882900,0,1,0,0,0,1,1,0
24.823883750,0,1,0,0,1,1,1,0
24.823888450,1,0,0,0,1,0,0,0
25.282494600,1,0,0,0,1,0,0,1
25.323864350,0,1,0,0,1,0,0,1
25.323891650,0,1,0,0,0,0,1,0
25.323891800,0,1,0,0,0,0,0,1
25.323892050,0,1,0,0,0,1,1,1
25.323892100,0,1,0,0,0,1,1,0
25.323892900,0,1,0,0,1,1,1,0
25.323897300,1,0,0,0,1,0,0,0
25.690080850,1,0,0,0,0,1,0,0
25.691026400,1,0,0,0,1,0,1,0
25.691028100,1,0,0,0,0,0,0,1
25.691051800,1,0,0,0,1,1,0,0
25.823872550,0,1,0,0,1,0,0,1
25.823899450,0,1,0,0,1,0,1,1
25.823899500,0,1,0,0,0,0,1,0
25.823899850,0,1,0,0,0,0,0,1
25.823900150,0,1,0,0,0,1,1,0
25.823901000,0,1,0,0,1,1,1,0
25.823905600,1,0,0,0,1,0,0,0
26.282503500,1,0,0,0,1,0,0,1
26.323879450,0,1,0,0,1,0,0,1
26.323905050,0,1,0,0,0,0,1,0
26.323905300,0,1,0,0,0,0,0,1
26.323905600,0,1,0,0,0,1,1,1
26.323905650,0,1,0,0,0,1,1,0
26.323906500,0,1,0,0,1,1,1,0
26.323911150,1,0,0,0,1,0,0,0
26.690072250,1,0,0,0,1,1,0,0
26.690072300,1,0,0,0,0,1,0,0
26.691021550,1,0,0,0,1,0,1,0
26.691023300,1,0,0,0,0,0,0,1
26.691047250,1,0,0,0,1,1,0,0
26.823883850,1,1,0,0,1,1,0,1
26.823883900,0,1,0,0,1,0,0,1
26.823910350,0,1,0,0,1,0,1,1
26.823910400,0,1,0,0,0,0,1,0
26.823910600,0,1,0,0,0,0,0,1
26.823910950,0,1,0,0,0,1,1,0
26.823911750,0,1,0,0,1,1,1,0
26.823916250,1,1,0,0,1,0,1,0
26.823916300,1,0,0,0,1,0,0,0
27.282508200,1,0,0,0,1,0,0,1
27.323887450,0,1,0,0,1,0,0,1
27.323914050,0,1,0,0,1,0,1,1
27.323914100,0,1,0,0,0,0,1,0
27.323914300,0,1,0,0,0,0,0,1
27.323914650,0,1,0,0,0,1,1,0
27.323915500,0,1,0,0,1,1,1,0
27.323919850,1,1,0,0,1,1,1,0
27.323919900,1,0,0,0,1,0,0,0
27.690074300,1,0,0,0,0,1,0,0
27.691025850,1,0,0,0,1,0,1,0
27.691027550,1,0,0,0,0,0,0,1
27.691050950,1,0,0,0,1,1,0,0
27.823902650,0,1,0,0,1,0,0,1
27.823929250,0,1,0,0,1,0,1,1
27.823929300,0,1,0,0,0,0,1,0
27.823929450,0,1,0,0,0,0,0,1
27.823929650,0,1,0,0,0,1,1,1
27.823929700,0,1,0,0,0,1,1,0
27.823930550,0,1,0,0,1,1,1,0
27.823935250,1,0,0,0,1,0,0,0
28.282521350,1,0,0,0,1,0,0,1
28.323903050,0,1,0,0,1,0,0,1
28.323929000,0,1,0,0,0,0,1,0
28.323929300,0,1,0,0,0,0,0,1
28.323929600,0,1,0,0,0,1,1,0
28.323930750,0,1,0,0,1,1,1,0
28.323934950,1,0,0,0,1,0,0,0
28.690109900,1,0,0,0,0,1,0,0
28.691047300,1,0,0,0,1,0,1,0
28.691049000,1,0,0,0,0,0,0,1
28.691072000,1,0,0,0,1,1,0,0
28.823911600,0,1,0,0,1,0,0,1
28.823938550,0,1,0,0,0,0,1,0
28.823938950,0,1,0,0,0,0,0,1
28.823939250,0,1,0,0,0,1,1,0
28.823940100,0,1,0,0,1,1,1,0
28.823944750,1,0,0,0,1,0,0,0
29.282527500,1,0,0,0,1,0,0,1
29.323913950,0,1,0,0,1,0,0,1
29.323940000,0,1,0,0,0,0,1,0
29.323940550,0,1,0,0,0,0,0,1
29.323940850,0,1,0,0,0,1,1,0
29.323941700,0,1,0,0,1,1,1,0
29.323946100,1,0,0,0,1,0,0,0
29.690112400,1,0,0,0,0,1,0,0
29.691051600,1,0,0,0,1,0,1,0
29.691053350,1,0,0,0,0,0,0,1
29.691076800,1,0,0,0,1,1,0,0
29.823933000,0,1,0,0,1,0,0,1
29.823959650,0,1,0,0,0,0,1,0
29.823959850,0,1,0,0,0,0,0,1
29.823960200,0,1,0,0,0,1,1,0
29.823961100,0,1,0,0,1,1,1,0
29.823965300,1,1,0,0,1,1,1,0
29.823965350,1,0,0,0,1,0,0,0
30.282534650,1,0,0,0,1,0,0,1
30.323947650,0,1,0,0,1,0,0,1
30.323974100,0,1,0,0,0,0,1,0
30.323974300,0,1,0,0,0,0,1,1
30.323974350,0,1,0,0,0,0,0,1
30.323974650,0,1,0,0,0,1,1,0
30.323975500,0,1,0,0,1,1,1,0
30.323979650,1,0,0,0,1,0,0,0
30.690104700,1,0,0,0,0,1,0,0
30.691055000,1,0,0,0,1,0,1,0
30.691056650,1,0,0,0,1,0,1,1
30.691056700,1,0,0,0,0,0,0,1
30.691080450,1,0,0,0,1,1,0,0
30.823966200,0,1,0,0,1,0,0,1
30.823992800,0,1,0,0,0,0,1,0
30.823993000,0,1,0,0,0,0,0,1
30.823993350,0,1,0,0,0,1,1,0
30.823994200,0,1,0,0,1,1,1,0
30.823998500,1,0,0,0,1,0,0,0
31.282553850,1,0,0,0,1,0,0,1
31.323974050,0,1,0,0,1,0,0,1
31.324001300,0,1,0,0,1,0,1,1
31.324001350,0,1,0,0,0,0,1,0
31.324001550,0,1,0,0,0,0,0,1
31.324001900,0,1,0,0,0,1,1,1
31.324001950,0,1,0,0,0,1,1,0
31.324002800,0,1,0,0,1,1,1,0
31.324007100,1,1,0,0,1,0,1,0
31.324007150,1,0,0,0,1,0,0,0
31.690120200,1,0,0,0,0,1,0,0
31.691067700,1,0,0,0,1,1,1,0
31.691067750,1,0,0,0,1,0,1,0
31.691069700,1,0,0,0,0,0,0,1
31.691092650,1,0,0,0,1,1,0,0
31.823979350,1,1,0,0,1,1,0,1
31.823979400,0,1,0,0,1,0,0,1
31.824006800,0,1,0,0,0,0,1,0
31.824007150,0,1,0,0,0,0,1,1
31.824007200,0,1,0,0,0,0,0,1
31.824007450,0,1,0,0,0,1,1,1
31.824007500,0,1,0,0,0,1,1,0
31.824008350,0,1,0,0,1,1,1,0
31.824012650,1,1,0,0,1,1,1,0
31.824012700,1,0,0,0,1,0,0,0
32.282566350,1,0,0,0,1,0,0,1
32.323987100,0,1,0,0,1,0,0,1
32.324013050,0,1,0,0,0,0,1,0
32.324013300,0,1,0,0,0,0,0,1
32.324013650,0,1,0,0,0,1,1,0
32.324014500,0,1,0,0,1,1,1,0
32.324019200,1,0,0,0,1,0,0,0
32.690130200,1,0,0,0,1,1,0,0
32.690130250,1,0,0,0,0,1,0,0
32.691072000,1,0,0,0,1,0,1,0
32.691073700,1,0,0,0,0,0,0,1
32.691096800,1,0,0,0,1,1,0,0
32.823997250,0,1,0,0,1,0,0,1
32.824023750,0,1,0,0,0,0,1,0
32.824023950,0,1,0,0,0,0,1,1
32.824024000,0,1,0,0,0,0,0,1
32.824024300,0,1,0,0,0,1,1,0
32.824025150,0,1,0,0,1,1,1,0
32.824029250,1,0,0,0,1,0,0,0
33.282576350,1,0,0,0,1,0,0,1
33.323996150,0,1,0,0,1,0,0,1
33.324022450,0,1,0,0,0,0,1,0
33.324022700,0,1,0,0,0,0,0,1
33.324023050,0,1,0,0,0,1,1,0
33.324023900,0,1,0,0,1,1,1,0
33.324028500,1,0,0,0,1,0,0,0
33.690130450,1,0,0,0,0,1,0,0
33.691076100,1,0,0,0,1,0,1,0
33.691077750,1,0,0,0,0,0,1,1
33.691077800,1,0,0,0,0,0,0,1
33.691101750,1,0,0,0,1,1,0,0
33.824002250,0,1,0,0,1,0,0,1
33.824028500,0,1,0,0,0,0,1,0
33.824028850,0,1,0,0,0,0,0,1
33.824029150,0,1,0,0,0,1,1,1
33.824029200,0,1,0,0,0,1,1,0
33.824030000,0,1,0,0,1,1,1,0
33.824034500,1,0,0,0,1,0,0,0
34.282579950,1,0,0,0,1,0,0,1
34.324015100,0,1,0,0,1,0,0,1
34.324041050,0,1,0,0,0,0,1,0
34.324041250,0,1,0,0,0,0,1,1
34.324041300,0,1,0,0,0,0,0,1
34.324041650,0,1,0,0,0,1,1,0
34.324042500,0,1,0,0,1,1,1,0
34.324047200,1,0,0,0,1,0,0,0
34.690146350,1,0,0,0,0,1,0,0
34.691096950,1,0,0,0,1,0,1,0
34.691098600,1,0,0,0,1,0,1,1
34.691098650,1,0,0,0,0,0,0,1
34.691122250,1,0,0,0,1,1,0,0
