Time [s],Channel 0,Channel 1,Channel 2,Channel 3,Channel 4,Channel 5,Channel 6,Channel 7,Channel 8,Channel 9
0.000000000,1,0,0,1,0,1,0,1,1,1
0.091427550,1,0,0,0,1,0,1,1,1,1
0.091427600,1,0,0,0,1,0,1,0,1,1
0.091428300,1,0,0,0,1,0,1,1,1,1
0.169155750,1,0,0,1,1,0,1,1,1,1
0.169155800,0,0,0,1,0,0,1,0,1,1
0.169156800,0,0,0,0,1,0,0,0,1,1
0.169180650,0,0,0,0,1,0,0,1,1,1
0.169181650,0,0,0,0,0,0,1,0,1,1
0.169181850,0,0,0,0,0,0,1,1,1,1
0.169182200,0,0,0,0,1,1,0,0,1,1
0.169183000,0,0,0,1,1,1,0,0,1,1
0.169187500,0,0,0,1,0,0,0,0,1,1
0.169203400,0,0,0,1,0,0,0,0,0,1
0.169212000,0,0,0,1,0,0,0,0,1,1
0.169220650,0,0,0,1,0,0,0,0,0,1
0.169281150,0,0,0,1,0,0,0,0,1,1
0.169289800,0,0,0,1,0,0,0,0,0,1
0.169298400,0,0,0,1,0,0,0,0,1,1
0.169307050,0,0,0,1,0,0,0,0,0,1
0.169324350,0,0,0,1,0,0,0,0,1,1
0.169333000,0,0,0,1,0,0,0,0,0,1
0.169367550,0,0,0,1,0,0,0,0,1,1
0.169376200,0,0,0,1,0,0,0,0,0,1
0.169384800,0,0,0,1,0,0,0,0,1,1
0.169393450,0,0,0,1,0,0,0,0,0,1
0.169453950,0,0,0,1,0,0,0,0,1,1
0.169462600,0,0,0,1,0,0,0,0,0,1
0.169479850,0,0,0,1,0,0,0,0,1,1
0.169488500,0,0,0,1,0,0,0,0,0,1
0.169497150,0,0,0,1,0,0,0,0,1,1
0.169514400,0,0,0,1,0,0,0,0,0,1
0.169531700,0,0,0,1,0,0,0,0,1,1
0.169549000,0,0,0,1,0,0,0,0,0,1
0.169557600,0,0,0,1,0,0,0,0,1,1
0.169566250,0,0,0,1,0,0,0,0,0,1
0.169626750,0,0,0,1,0,0,0,0,1,1
0.169635400,0,0,0,1,0,0,0,0,0,1
0.169644000,0,0,0,1,0,0,0,0,1,1
0.169661300,0,0,0,1,0,0,0,0,0,1
0.169678550,0,0,0,1,0,0,0,0,1,1
0.169687200,0,0,0,1,0,0,0,0,0,1
0.169695850,0,0,0,1,0,0,0,0,1,1
0.169721800,0,0,0,1,0,0,0,0,0,1
0.169730400,0,0,0,1,0,0,0,0,1,1
0.169739050,0,0,0,1,0,0,0,0,0,1
0.169747700,0,0,0,1,0,0,0,0,1,1
0.169756350,0,0,0,1,0,0,0,0,0,1
0.169764950,0,0,0,1,0,0,0,0,1,1
0.169782250,0,0,0,1,0,0,0,0,0,1
0.169790900,0,0,0,1,0,0,0,0,1,1
0.169808200,0,0,0,1,0,0,0,0,0,1
0.169816800,0,0,0,1,0,0,0,0,1,1
0.169825450,0,0,0,1,0,0,0,0,0,1
0.169842750,0,0,0,1,0,0,0,0,1,1
0.169851400,0,0,0,1,0,0,0,0,0,1
0.169885950,0,0,0,1,0,0,0,0,1,1
0.169894600,0,0,0,1,0,0,0,0,0,1
0.169903200,0,0,0,1,0,0,0,0,1,1
0.169911850,0,0,0,1,0,0,0,0,0,1
0.169946400,0,0,0,1,0,0,0,0,1,1
0.169955050,0,0,0,1,0,0,0,0,0,1
0.169963700,0,0,0,1,0,0,0,0,1,1
0.169981000,0,0,0,1,0,0,0,0,0,1
0.169989600,0,0,0,1,0,0,0,0,1,1
0.170006900,0,0,0,1,0,0,0,0,0,1
0.170015550,0,0,0,1,0,0,0,0,1,1
0.170067400,0,0,0,1,0,0,0,0,0,1
0.170068000,0,0,0,1,0,0,0,1,0,1
0.170068300,0,0,0,1,1,1,0,1,0,1
0.170068500,0,0,0,0,1,1,0,1,0,1
0.170068650,0,0,0,1,0,0,1,1,0,1
0.170145150,0,0,0,1,0,0,1,1,1,1
0.171637150,1,0,0,1,0,0,1,0,1,1
0.171637900,1,0,0,1,0,0,1,1,1,1
0.402496800,1,0,0,1,0,0,1,1,1,0
0.402505450,1,0,0,1,0,0,1,1,1,1
0.402514100,1,0,0,1,0,0,1,1,1,0
0.402574550,1,0,0,1,0,0,1,1,1,1
0.402583200,1,0,0,1,0,0,1,1,1,0
0.402591850,1,0,0,1,0,0,1,1,1,1
0.402596000,0,0,0,0,1,0,0,0,1,1
0.402600500,0,0,0,0,1,0,0,0,1,0
0.402617750,0,0,0,0,1,0,0,0,1,1
0.402626400,0,0,0,0,1,0,0,0,1,0
0.402660950,0,0,0,0,1,0,0,0,1,1
0.402669600,0,0,0,0,1,0,0,0,1,0
0.402686900,0,0,0,0,1,0,0,0,1,1
0.402695550,0,0,0,0,1,0,0,0,1,0
0.402747350,0,0,0,0,1,0,0,0,1,1
0.402756000,0,0,0,0,1,0,0,0,1,0
0.402773300,0,0,0,0,1,0,0,0,1,1
0.402781950,0,0,0,0,1,0,0,0,1,0
0.402790550,0,0,0,0,1,0,0,0,1,1
0.402807850,0,0,0,0,1,0,0,0,1,0
0.402825150,0,0,0,0,1,0,0,0,1,1
0.402842400,0,0,0,0,1,0,0,0,1,0
0.402851050,0,0,0,0,1,0,0,0,1,1
0.402859700,0,0,0,0,1,0,0,0,1,0
0.402920150,0,0,0,0,1,0,0,0,1,1
0.402928800,0,0,0,0,1,0,0,0,1,0
0.402937450,0,0,0,0,1,0,0,0,1,1
0.402954750,0,0,0,0,1,0,0,0,1,0
0.402972000,0,0,0,0,1,0,0,0,1,1
0.402980650,0,0,0,0,1,0,0,0,1,0
0.402989300,0,0,0,0,1,0,0,0,1,1
0.403015200,0,0,0,0,1,0,0,0,1,0
0.403023850,0,0,0,0,1,0,0,0,1,1
0.403032500,0,0,0,0,1,0,0,0,1,0
0.403041150,0,0,0,0,1,0,0,0,1,1
0.403049800,0,0,0,0,1,0,0,0,1,0
0.403058400,0,0,0,0,1,0,0,0,1,1
0.403075700,0,0,0,0,1,0,0,0,1,0
0.403084350,0,0,0,0,1,0,0,0,1,1
0.403101600,0,0,0,0,1,0,0,0,1,0
0.403110250,0,0,0,0,1,0,0,0,1,1
0.403118900,0,0,0,0,1,0,0,0,1,0
0.403136150,0,0,0,0,1,0,0,0,1,1
0.403144800,0,0,0,0,1,0,0,0,1,0
0.403179350,0,0,0,0,1,0,0,0,1,1
0.403188000,0,0,0,0,1,0,0,0,1,0
0.403205300,0,0,0,0,1,0,0,0,1,1
0.403213950,0,0,0,0,1,0,0,0,1,0
0.403231200,0,0,0,0,1,0,0,0,1,1
0.403239850,0,0,0,0,1,0,0,0,1,0
0.403257150,0,0,0,0,1,0,0,0,1,1
0.403274400,0,0,0,0,1,0,0,0,1,0
0.403283050,0,0,0,0,1,0,0,0,1,1
0.403300350,0,0,0,0,1,0,0,0,1,0
0.403308950,0,0,0,0,1,0,0,0,1,1
0.403360800,0,0,0,0,1,0,0,0,1,0
0.403438550,0,0,0,0,1,0,0,0,1,1
0.403458500,0,0,0,0,1,0,0,1,1,1
0.403458800,0,0,0,1,1,1,0,1,1,1
0.403458850,1,0,0,1,0,1,0,0,1,1
0.403459550,1,0,0,0,0,0,1,0,1,1
0.403459750,1,0,0,0,1,0,0,0,1,1
0.403482250,1,0,0,0,1,0,0,1,1,1
0.403482650,1,0,0,0,0,0,1,1,1,1
0.403482950,1,0,0,1,0,1,0,1,1,1
0.491445700,0,0,0,0,1,0,1,0,1,1
0.491469100,0,0,0,0,1,0,1,1,1,1
0.492375350,1,0,0,0,1,0,1,0,1,1
0.498405350,1,0,0,0,1,0,1,1,1,1
0.671655350,1,0,0,1,0,0,1,0,1,1
0.671656700,1,0,0,1,0,0,1,1,1,1
0.902504350,1,0,0,1,0,0,1,1,1,0
0.902513000,1,0,0,1,0,0,1,1,1,1
0.902521650,1,0,0,1,0,0,1,1,1,0
0.902582100,1,0,0,1,0,0,1,1,1,1
0.902590750,1,0,0,1,0,0,1,1,1,0
0.902599400,1,0,0,1,0,0,1,1,1,1
0.902608050,1,0,0,1,0,0,1,1,1,0
0.902611500,0,0,0,0,1,0,0,0,1,0
0.902625300,0,0,0,0,1,0,0,0,1,1
0.902633950,0,0,0,0,1,0,0,0,1,0
0.902668500,0,0,0,0,1,0,0,0,1,1
0.902677150,0,0,0,0,1,0,0,0,1,0
0.902694450,0,0,0,0,1,0,0,0,1,1
0.902703100,0,0,0,0,1,0,0,0,1,0
0.902754900,0,0,0,0,1,0,0,0,1,1
0.902763550,0,0,0,0,1,0,0,0,1,0
0.902780850,0,0,0,0,1,0,0,0,1,1
0.902789500,0,0,0,0,1,0,0,0,1,0
0.902798100,0,0,0,0,1,0,0,0,1,1
0.902815400,0,0,0,0,1,0,0,0,1,0
0.902832650,0,0,0,0,1,0,0,0,1,1
0.902849950,0,0,0,0,1,0,0,0,1,0
0.902858600,0,0,0,0,1,0,0,0,1,1
0.902867250,0,0,0,0,1,0,0,0,1,0
0.902927700,0,0,0,0,1,0,0,0,1,1
0.902936350,0,0,0,0,1,0,0,0,1,0
0.902945000,0,0,0,0,1,0,0,0,1,1
0.902962300,0,0,0,0,1,0,0,0,1,0
0.902979550,0,0,0,0,1,0,0,0,1,1
0.902988200,0,0,0,0,1,0,0,0,1,0
0.902996850,0,0,0,0,1,0,0,0,1,1
0.903022750,0,0,0,0,1,0,0,0,1,0
0.903031400,0,0,0,0,1,0,0,0,1,1
0.903040050,0,0,0,0,1,0,0,0,1,0
0.903048650,0,0,0,0,1,0,0,0,1,1
0.903057300,0,0,0,0,1,0,0,0,1,0
0.903065950,0,0,0,0,1,0,0,0,1,1
0.903083250,0,0,0,0,1,0,0,0,1,0
0.903091850,0,0,0,0,1,0,0,0,1,1
0.903109150,0,0,0,0,1,0,0,0,1,0
0.903117800,0,0,0,0,1,0,0,0,1,1
0.903126450,0,0,0,0,1,0,0,0,1,0
0.903143700,0,0,0,0,1,0,0,0,1,1
0.903152350,0,0,0,0,1,0,0,0,1,0
0.903186900,0,0,0,0,1,0,0,0,1,1
0.903195550,0,0,0,0,1,0,0,0,1,0
0.903212850,0,0,0,0,1,0,0,0,1,1
0.903221500,0,0,0,0,1,0,0,0,1,0
0.903238750,0,0,0,0,1,0,0,0,1,1
0.903247400,0,0,0,0,1,0,0,0,1,0
0.903264650,0,0,0,0,1,0,0,0,1,1
0.903281950,0,0,0,0,1,0,0,0,1,0
0.903290600,0,0,0,0,1,0,0,0,1,1
0.903307900,0,0,0,0,1,0,0,0,1,0
0.903316500,0,0,0,0,1,0,0,0,1,1
0.903368350,0,0,0,0,1,0,0,0,1,0
0.903446100,0,0,0,0,1,0,0,0,1,1
0.903465900,0,0,0,0,1,0,0,1,1,1
0.903466300,1,0,0,1,0,1,0,0,1,1
0.903467000,1,0,0,0,0,0,1,0,1,1
0.903467200,1,0,0,0,1,0,0,0,1,1
0.903489750,1,0,0,0,1,0,0,1,1,1
0.903490150,1,0,0,0,0,0,1,1,1,1
0.903490450,1,0,0,1,0,1,1,1,1,1
0.903490500,1,0,0,1,0,1,0,1,1,1
1.091427250,1,0,0,0,1,0,1,0,1,1
1.091427950,1,0,0,0,1,0,1,1,1,1
1.169167300,1,0,0,1,1,0,1,1,1,1
1.169167350,0,0,0,1,0,0,1,0,1,1
1.169168400,0,0,0,0,1,0,1,0,1,1
1.169168450,0,0,0,0,1,0,0,0,1,1
1.169192100,0,0,0,0,1,0,0,1,1,1
1.169192850,0,0,0,0,0,0,1,0,1,1
1.169193250,0,0,0,0,0,0,1,1,1,1
1.169193500,0,0,0,0,1,1,0,0,1,1
1.169194350,0,0,0,1,1,1,0,0,1,1
1.169199100,0,0,0,1,0,0,0,0,1,1
1.169217150,0,0,0,1,0,0,0,0,0,1
1.169225800,0,0,0,1,0,0,0,0,1,1
1.169234450,0,0,0,1,0,0,0,0,0,1
1.169294900,0,0,0,1,0,0,0,0,1,1
1.169303550,0,0,0,1,0,0,0,0,0,1
1.169312200,0,0,0,1,0,0,0,0,1,1
1.169320850,0,0,0,1,0,0,0,0,0,1
1.169338100,0,0,0,1,0,0,0,0,1,1
1.169346750,0,0,0,1,0,0,0,0,0,1
1.169381300,0,0,0,1,0,0,0,0,1,1
1.169389950,0,0,0,1,0,0,0,0,0,1
1.169398600,0,0,0,1,0,0,0,0,1,1
1.169407250,0,0,0,1,0,0,0,0,0,1
1.169467700,0,0,0,1,0,0,0,0,1,1
1.169476350,0,0,0,1,0,0,0,0,0,1
1.169485000,0,0,0,1,0,0,0,0,1,1
1.169502250,0,0,0,1,0,0,0,0,0,1
1.169510900,0,0,0,1,0,0,0,0,1,1
1.169528200,0,0,0,1,0,0,0,0,0,1
1.169545450,0,0,0,1,0,0,0,0,1,1
1.169562750,0,0,0,1,0,0,0,0,0,1
1.169571400,0,0,0,1,0,0,0,0,1,1
1.169580050,0,0,0,1,0,0,0,0,0,1
1.169640500,0,0,0,1,0,0,0,0,1,1
1.169649150,0,0,0,1,0,0,0,0,0,1
1.169657800,0,0,0,1,0,0,0,0,1,1
1.169675050,0,0,0,1,0,0,0,0,0,1
1.169683700,0,0,0,1,0,0,0,0,1,1
1.169709650,0,0,0,1,0,0,0,0,0,1
1.169718250,0,0,0,1,0,0,0,0,1,1
1.169735550,0,0,0,1,0,0,0,0,0,1
1.169744200,0,0,0,1,0,0,0,0,1,1
1.169752850,0,0,0,1,0,0,0,0,0,1
1.169761450,0,0,0,1,0,0,0,0,1,1
1.169796050,0,0,0,1,0,0,0,0,0,1
1.169804650,0,0,0,1,0,0,0,0,1,1
1.169821950,0,0,0,1,0,0,0,0,0,1
1.169830600,0,0,0,1,0,0,0,0,1,1
1.169839250,0,0,0,1,0,0,0,0,0,1
1.169856500,0,0,0,1,0,0,0,0,1,1
1.169865150,0,0,0,1,0,0,0,0,0,1
1.169899700,0,0,0,1,0,0,0,0,1,1
1.169908350,0,0,0,1,0,0,0,0,0,1
1.169917000,0,0,0,1,0,0,0,0,1,1
1.169925650,0,0,0,1,0,0,0,0,0,1
1.169934250,0,0,0,1,0,0,0,0,1,1
1.169977500,0,0,0,1,0,0,0,0,0,1
1.169986100,0,0,0,1,0,0,0,0,1,1
1.169994750,0,0,0,1,0,0,0,0,0,1
1.170055200,0,0,0,1,0,0,0,0,1,1
1.170063850,0,0,0,1,0,0,0,0,0,1
1.170072500,0,0,0,1,0,0,0,0,1,1
1.170081150,0,0,0,1,0,0,0,0,0,1
1.170081800,0,0,0,1,0,0,0,1,0,1
1.170082100,0,0,0,1,1,1,0,1,0,1
1.170082250,0,0,0,0,1,1,0,1,0,1
1.170082400,0,0,0,1,0,0,1,1,0,1
1.170158900,0,0,0,1,0,0,1,1,1,1
1.171663950,1,0,0,1,0,0,1,0,1,1
1.171664750,1,0,0,1,0,0,1,1,1,1
1.402503250,1,0,0,1,0,0,1,1,1,0
1.402511900,1,0,0,1,0,0,1,1,1,1
1.402520550,1,0,0,1,0,0,1,1,1,0
1.402581000,1,0,0,1,0,0,1,1,1,1
1.402589650,1,0,0,1,0,0,1,1,1,0
1.402598300,1,0,0,1,0,0,1,1,1,1
1.402606950,1,0,0,1,0,0,1,1,1,0
1.402612750,1,0,0,1,1,0,1,1,1,0
1.402612800,0,0,0,0,1,0,0,0,1,0
1.402624200,0,0,0,0,1,0,0,0,1,1
1.402632850,0,0,0,0,1,0,0,0,1,0
1.402667400,0,0,0,0,1,0,0,0,1,1
1.402676050,0,0,0,0,1,0,0,0,1,0
1.402693350,0,0,0,0,1,0,0,0,1,1
1.402702000,0,0,0,0,1,0,0,0,1,0
1.402753800,0,0,0,0,1,0,0,0,1,1
1.402762450,0,0,0,0,1,0,0,0,1,0
1.402771100,0,0,0,0,1,0,0,0,1,1
1.402788400,0,0,0,0,1,0,0,0,1,0
1.402797000,0,0,0,0,1,0,0,0,1,1
1.402814300,0,0,0,0,1,0,0,0,1,0
1.402831550,0,0,0,0,1,0,0,0,1,1
1.402848850,0,0,0,0,1,0,0,0,1,0
1.402857500,0,0,0,0,1,0,0,0,1,1
1.402866150,0,0,0,0,1,0,0,0,1,0
1.402926600,0,0,0,0,1,0,0,0,1,1
1.402935250,0,0,0,0,1,0,0,0,1,0
1.402943900,0,0,0,0,1,0,0,0,1,1
1.402961200,0,0,0,0,1,0,0,0,1,0
1.402969800,0,0,0,0,1,0,0,0,1,1
1.402995750,0,0,0,0,1,0,0,0,1,0
1.403004350,0,0,0,0,1,0,0,0,1,1
1.403021650,0,0,0,0,1,0,0,0,1,0
1.403030300,0,0,0,0,1,0,0,0,1,1
1.403038950,0,0,0,0,1,0,0,0,1,0
1.403047550,0,0,0,0,1,0,0,0,1,1
1.403082150,0,0,0,0,1,0,0,0,1,0
1.403090750,0,0,0,0,1,0,0,0,1,1
1.403108050,0,0,0,0,1,0,0,0,1,0
1.403116700,0,0,0,0,1,0,0,0,1,1
1.403125350,0,0,0,0,1,0,0,0,1,0
1.403142600,0,0,0,0,1,0,0,0,1,1
1.403151250,0,0,0,0,1,0,0,0,1,0
1.403185800,0,0,0,0,1,0,0,0,1,1
1.403194450,0,0,0,0,1,0,0,0,1,0
1.403211750,0,0,0,0,1,0,0,0,1,1
1.403237650,0,0,0,0,1,0,0,0,1,0
1.403254950,0,0,0,0,1,0,0,0,1,1
1.403263600,0,0,0,0,1,0,0,0,1,0
1.403272200,0,0,0,0,1,0,0,0,1,1
1.403280850,0,0,0,0,1,0,0,0,1,0
1.403341350,0,0,0,0,1,0,0,0,1,1
1.403350000,0,0,0,0,1,0,0,0,1,0
1.403358600,0,0,0,0,1,0,0,0,1,1
1.403367250,0,0,0,0,1,0,0,0,1,0
1.403445000,0,0,0,0,1,0,0,0,1,1
1.403465650,0,0,0,0,1,0,0,1,1,1
1.403466200,1,0,0,1,0,1,0,0,1,1
1.403467000,1,0,0,0,0,0,1,0,1,1
1.403467200,1,0,0,0,1,0,0,0,1,1
1.403489750,1,0,0,0,1,0,0,1,1,1
1.403490100,1,0,0,0,0,0,1,1,1,1
1.403490450,1,0,0,1,0,1,0,1,1,1
1.491430400,0,0,0,0,1,0,1,0,1,1
1.491453950,0,0,0,0,1,0,1,1,1,1
1.492364550,1,0,0,0,1,0,1,0,1,1
1.498392900,1,0,0,0,1,0,1,1,1,1
1.671668850,1,0,0,1,0,0,1,0,1,1
1.671670100,1,0,0,1,0,0,1,1,1,1
1.902519450,1,0,0,1,0,0,1,1,1,0
1.902528050,1,0,0,1,0,0,1,1,1,1
1.902536700,1,0,0,1,0,0,1,1,1,0
1.902597200,1,0,0,1,0,0,1,1,1,1
1.902605850,1,0,0,1,0,0,1,1,1,0
1.902614450,1,0,0,1,0,0,1,1,1,1
1.902623100,1,0,0,1,0,0,1,1,1,0
1.902627300,0,0,0,0,1,0,0,0,1,0
1.902640400,0,0,0,0,1,0,0,0,1,1
1.902649050,0,0,0,0,1,0,0,0,1,0
1.902683600,0,0,0,0,1,0,0,0,1,1
1.902692250,0,0,0,0,1,0,0,0,1,0
1.902709500,0,0,0,0,1,0,0,0,1,1
1.902718150,0,0,0,0,1,0,0,0,1,0
1.902770000,0,0,0,0,1,0,0,0,1,1
1.902778650,0,0,0,0,1,0,0,0,1,0
1.902787250,0,0,0,0,1,0,0,0,1,1
1.902804550,0,0,0,0,1,0,0,0,1,0
1.902813200,0,0,0,0,1,0,0,0,1,1
1.902830450,0,0,0,0,1,0,0,0,1,0
1.902847750,0,0,0,0,1,0,0,0,1,1
1.902865050,0,0,0,0,1,0,0,0,1,0
1.902873650,0,0,0,0,1,0,0,0,1,1
1.902882300,0,0,0,0,1,0,0,0,1,0
1.902942800,0,0,0,0,1,0,0,0,1,1
1.902951450,0,0,0,0,1,0,0,0,1,0
1.902960050,0,0,0,0,1,0,0,0,1,1
1.902977350,0,0,0,0,1,0,0,0,1,0
1.902986000,0,0,0,0,1,0,0,0,1,1
1.903011900,0,0,0,0,1,0,0,0,1,0
1.903020550,0,0,0,0,1,0,0,0,1,1
1.903037850,0,0,0,0,1,0,0,0,1,0
1.903046450,0,0,0,0,1,0,0,0,1,1
1.903055100,0,0,0,0,1,0,0,0,1,0
1.903063750,0,0,0,0,1,0,0,0,1,1
1.903098300,0,0,0,0,1,0,0,0,1,0
1.903106950,0,0,0,0,1,0,0,0,1,1
1.903124250,0,0,0,0,1,0,0,0,1,0
1.903132850,0,0,0,0,1,0,0,0,1,1
1.903141500,0,0,0,0,1,0,0,0,1,0
1.903158800,0,0,0,0,1,0,0,0,1,1
1.903167450,0,0,0,0,1,0,0,0,1,0
1.903202000,0,0,0,0,1,0,0,0,1,1
1.903210650,0,0,0,0,1,0,0,0,1,0
1.903227900,0,0,0,0,1,0,0,0,1,1
1.903253850,0,0,0,0,1,0,0,0,1,0
1.903271100,0,0,0,0,1,0,0,0,1,1
1.903279750,0,0,0,0,1,0,0,0,1,0
1.903288400,0,0,0,0,1,0,0,0,1,1
1.903297050,0,0,0,0,1,0,0,0,1,0
1.903357500,0,0,0,0,1,0,0,0,1,1
1.903366150,0,0,0,0,1,0,0,0,1,0
1.903374800,0,0,0,0,1,0,0,0,1,1
1.903383450,0,0,0,0,1,0,0,0,1,0
1.903461200,0,0,0,0,1,0,0,0,1,1
1.903481500,0,0,0,0,1,0,0,1,1,1
1.903481950,1,0,0,1,0,1,0,0,1,1
1.903482750,1,0,0,0,0,0,1,0,1,1
1.903482900,1,0,0,0,1,0,0,0,1,1
1.903505650,1,0,0,0,1,0,0,1,1,1
1.903505950,1,0,0,0,1,0,1,1,1,1
1.903506000,1,0,0,0,0,0,1,1,1,1
1.903506300,1,0,0,1,0,1,0,1,1,1
2.091430950,1,0,0,1,1,1,1,1,1,1
2.091431000,1,0,0,0,1,0,1,0,1,1
2.091431700,1,0,0,0,1,0,1,1,1,1
2.169184150,0,0,0,1,0,0,1,0,1,1
2.169185450,0,0,0,1,1,0,1,0,1,1
2.169185500,0,0,0,0,1,0,0,0,1,1
2.169208650,0,0,0,0,1,0,0,1,1,1
2.169209350,0,0,0,0,0,0,1,0,1,1
2.169209650,0,0,0,0,0,0,1,1,1,1
2.169210000,0,0,0,0,1,1,0,0,1,1
2.169210850,0,0,0,1,1,1,0,0,1,1
2.169214900,0,0,0,1,0,0,0,0,1,1
2.169230900,0,0,0,1,0,0,0,0,0,1
2.169239550,0,0,0,1,0,0,0,0,1,1
2.169248200,0,0,0,1,0,0,0,0,0,1
2.169308650,0,0,0,1,0,0,0,0,1,1
2.169317300,0,0,0,1,0,0,0,0,0,1
2.169325950,0,0,0,1,0,0,0,0,1,1
2.169334600,0,0,0,1,0,0,0,0,0,1
2.169351850,0,0,0,1,0,0,0,0,1,1
2.169360500,0,0,0,1,0,0,0,0,0,1
2.169395050,0,0,0,1,0,0,0,0,1,1
2.169403700,0,0,0,1,0,0,0,0,0,1
2.169412350,0,0,0,1,0,0,0,0,1,1
2.169421000,0,0,0,1,0,0,0,0,0,1
2.169481450,0,0,0,1,0,0,0,0,1,1
2.169490100,0,0,0,1,0,0,0,0,0,1
2.169516000,0,0,0,1,0,0,0,0,1,1
2.169541950,0,0,0,1,0,0,0,0,0,1
2.169559200,0,0,0,1,0,0,0,0,1,1
2.169576500,0,0,0,1,0,0,0,0,0,1
2.169585150,0,0,0,1,0,0,0,0,1,1
2.169593800,0,0,0,1,0,0,0,0,0,1
2.169654250,0,0,0,1,0,0,0,0,1,1
2.169662900,0,0,0,1,0,0,0,0,0,1
2.169671550,0,0,0,1,0,0,0,0,1,1
2.169688850,0,0,0,1,0,0,0,0,0,1
2.169714750,0,0,0,1,0,0,0,0,1,1
2.169723400,0,0,0,1,0,0,0,0,0,1
2.169732000,0,0,0,1,0,0,0,0,1,1
2.169749300,0,0,0,1,0,0,0,0,0,1
2.169757950,0,0,0,1,0,0,0,0,1,1
2.169766600,0,0,0,1,0,0,0,0,0,1
2.169775200,0,0,0,1,0,0,0,0,1,1
2.169783850,0,0,0,1,0,0,0,0,0,1
2.169809750,0,0,0,1,0,0,0,0,1,1
2.169835700,0,0,0,1,0,0,0,0,0,1
2.169844350,0,0,0,1,0,0,0,0,1,1
2.169853000,0,0,0,1,0,0,0,0,0,1
2.169870250,0,0,0,1,0,0,0,0,1,1
2.169878900,0,0,0,1,0,0,0,0,0,1
2.169913450,0,0,0,1,0,0,0,0,1,1
2.169922100,0,0,0,1,0,0,0,0,0,1
2.169939350,0,0,0,1,0,0,0,0,1,1
2.169948050,0,0,0,1,0,0,0,0,0,1
2.169956650,0,0,0,1,0,0,0,0,1,1
2.169982600,0,0,0,1,0,0,0,0,0,1
2.169991200,0,0,0,1,0,0,0,0,1,1
2.170008500,0,0,0,1,0,0,0,0,0,1
2.170017150,0,0,0,1,0,0,0,0,1,1
2.170043050,0,0,0,1,0,0,0,0,0,1
2.170051700,0,0,0,1,0,0,0,0,1,1
2.170060350,0,0,0,1,0,0,0,0,0,1
2.170068950,0,0,0,1,0,0,0,0,1,1
2.170077650,0,0,0,1,0,0,0,0,0,1
2.170086250,0,0,0,1,0,0,0,0,1,1
2.170094900,0,0,0,1,0,0,0,0,0,1
2.170095900,0,0,0,1,0,0,0,1,0,1
2.170096150,0,0,0,1,1,1,0,1,0,1
2.170096350,0,0,0,0,1,1,0,1,0,1
2.170096500,0,0,0,1,0,0,1,1,0,1
2.170172650,0,0,0,1,0,0,1,1,1,1
2.171677900,1,0,0,1,0,0,1,0,1,1
2.171678700,1,0,0,1,0,0,1,1,1,1
2.402526950,1,0,0,1,0,0,1,1,1,0
2.402535600,1,0,0,1,0,0,1,1,1,1
2.402544250,1,0,0,1,0,0,1,1,1,0
2.402604700,1,0,0,1,0,0,1,1,1,1
2.402613350,1,0,0,1,0,0,1,1,1,0
2.402622000,1,0,0,1,0,0,1,1,1,1
2.402625800,1,0,0,1,1,0,1,1,1,1
2.402625850,0,0,0,0,1,0,0,0,1,1
2.402630650,0,0,0,0,1,0,0,0,1,0
2.402647900,0,0,0,0,1,0,0,0,1,1
2.402656550,0,0,0,0,1,0,0,0,1,0
2.402691100,0,0,0,0,1,0,0,0,1,1
2.402699750,0,0,0,0,1,0,0,0,1,0
2.402717000,0,0,0,0,1,0,0,0,1,1
2.402725650,0,0,0,0,1,0,0,0,1,0
2.402777500,0,0,0,0,1,0,0,0,1,1
2.402786150,0,0,0,0,1,0,0,0,1,0
2.402812050,0,0,0,0,1,0,0,0,1,1
2.402838000,0,0,0,0,1,0,0,0,1,0
2.402855250,0,0,0,0,1,0,0,0,1,1
2.402872550,0,0,0,0,1,0,0,0,1,0
2.402881200,0,0,0,0,1,0,0,0,1,1
2.402889850,0,0,0,0,1,0,0,0,1,0
2.402950300,0,0,0,0,1,0,0,0,1,1
2.402958950,0,0,0,0,1,0,0,0,1,0
2.402967600,0,0,0,0,1,0,0,0,1,1
2.402984900,0,0,0,0,1,0,0,0,1,0
2.403010800,0,0,0,0,1,0,0,0,1,1
2.403019450,0,0,0,0,1,0,0,0,1,0
2.403028050,0,0,0,0,1,0,0,0,1,1
2.403045350,0,0,0,0,1,0,0,0,1,0
2.403054000,0,0,0,0,1,0,0,0,1,1
2.403062650,0,0,0,0,1,0,0,0,1,0
2.403071250,0,0,0,0,1,0,0,0,1,1
2.403079900,0,0,0,0,1,0,0,0,1,0
2.403105800,0,0,0,0,1,0,0,0,1,1
2.403131750,0,0,0,0,1,0,0,0,1,0
2.403140400,0,0,0,0,1,0,0,0,1,1
2.403149050,0,0,0,0,1,0,0,0,1,0
2.403166300,0,0,0,0,1,0,0,0,1,1
2.403174950,0,0,0,0,1,0,0,0,1,0
2.403209500,0,0,0,0,1,0,0,0,1,1
2.403218150,0,0,0,0,1,0,0,0,1,0
2.403226800,0,0,0,0,1,0,0,0,1,1
2.403235450,0,0,0,0,1,0,0,0,1,0
2.403252700,0,0,0,0,1,0,0,0,1,1
2.403261350,0,0,0,0,1,0,0,0,1,0
2.403287250,0,0,0,0,1,0,0,0,1,1
2.403304550,0,0,0,0,1,0,0,0,1,0
2.403313200,0,0,0,0,1,0,0,0,1,1
2.403339100,0,0,0,0,1,0,0,0,1,0
2.403347750,0,0,0,0,1,0,0,0,1,1
2.403356400,0,0,0,0,1,0,0,0,1,0
2.403365000,0,0,0,0,1,0,0,0,1,1
2.403373700,0,0,0,0,1,0,0,0,1,0
2.403382300,0,0,0,0,1,0,0,0,1,1
2.403390950,0,0,0,0,1,0,0,0,1,0
2.403468700,0,0,0,0,1,0,0,0,1,1
2.403488750,0,0,0,0,1,0,0,1,1,1
2.403489100,1,0,0,1,1,1,0,0,1,1
2.403489150,1,0,0,1,0,1,0,0,1,1
2.403489800,1,0,0,0,0,1,1,0,1,1
2.403489850,1,0,0,0,0,0,1,0,1,1
2.403490050,1,0,0,0,1,0,0,0,1,1
2.403512100,1,0,0,0,1,0,0,1,1,1
2.403512500,1,0,0,0,0,0,1,1,1,1
2.403512850,1,0,0,1,0,1,0,1,1,1
2.491440700,0,0,0,0,1,0,1,0,1,1
2.491463400,0,0,0,0,1,0,1,1,1,1
2.492377950,1,0,0,0,1,0,1,0,1,1
2.498406400,1,0,0,0,1,0,1,1,1,1
2.671686400,1,0,0,1,0,0,1,0,1,1
2.671687750,1,0,0,1,0,0,1,1,1,1
2.902543100,1,0,0,1,0,0,1,1,1,0
2.902551750,1,0,0,1,0,0,1,1,1,1
2.902560400,1,0,0,1,0,0,1,1,1,0
2.902620850,1,0,0,1,0,0,1,1,1,1
2.902629500,1,0,0,1,0,0,1,1,1,0
2.902638150,1,0,0,1,0,0,1,1,1,1
2.902643700,0,0,0,0,1,0,0,0,1,1
2.902646800,0,0,0,0,1,0,0,0,1,0
2.902664050,0,0,0,0,1,0,0,0,1,1
2.902672700,0,0,0,0,1,0,0,0,1,0
2.902707250,0,0,0,0,1,0,0,0,1,1
2.902715900,0,0,0,0,1,0,0,0,1,0
2.902733200,0,0,0,0,1,0,0,0,1,1
2.902741850,0,0,0,0,1,0,0,0,1,0
2.902793650,0,0,0,0,1,0,0,0,1,1
2.902802300,0,0,0,0,1,0,0,0,1,0
2.902828200,0,0,0,0,1,0,0,0,1,1
2.902854150,0,0,0,0,1,0,0,0,1,0
2.902871400,0,0,0,0,1,0,0,0,1,1
2.902888700,0,0,0,0,1,0,0,0,1,0
2.902897350,0,0,0,0,1,0,0,0,1,1
2.902906000,0,0,0,0,1,0,0,0,1,0
2.902966450,0,0,0,0,1,0,0,0,1,1
2.902975100,0,0,0,0,1,0,0,0,1,0
2.902983750,0,0,0,0,1,0,0,0,1,1
2.903001050,0,0,0,0,1,0,0,0,1,0
2.903026950,0,0,0,0,1,0,0,0,1,1
2.903035600,0,0,0,0,1,0,0,0,1,0
2.903044200,0,0,0,0,1,0,0,0,1,1
2.903061500,0,0,0,0,1,0,0,0,1,0
2.903070150,0,0,0,0,1,0,0,0,1,1
2.903078800,0,0,0,0,1,0,0,0,1,0
2.903087400,0,0,0,0,1,0,0,0,1,1
2.903096050,0,0,0,0,1,0,0,0,1,0
2.903122000,0,0,0,0,1,0,0,0,1,1
2.903147900,0,0,0,0,1,0,0,0,1,0
2.903156550,0,0,0,0,1,0,0,0,1,1
2.903165200,0,0,0,0,1,0,0,0,1,0
2.903182450,0,0,0,0,1,0,0,0,1,1
2.903191100,0,0,0,0,1,0,0,0,1,0
2.903225650,0,0,0,0,1,0,0,0,1,1
2.903234300,0,0,0,0,1,0,0,0,1,0
2.903242950,0,0,0,0,1,0,0,0,1,1
2.903251600,0,0,0,0,1,0,0,0,1,0
2.903268850,0,0,0,0,1,0,0,0,1,1
2.903277500,0,0,0,0,1,0,0,0,1,0
2.903303400,0,0,0,0,1,0,0,0,1,1
2.903320700,0,0,0,0,1,0,0,0,1,0
2.903329350,0,0,0,0,1,0,0,0,1,1
2.903355250,0,0,0,0,1,0,0,0,1,0
2.903363900,0,0,0,0,1,0,0,0,1,1
2.903372550,0,0,0,0,1,0,0,0,1,0
2.903381200,0,0,0,0,1,0,0,0,1,1
2.903389850,0,0,0,0,1,0,0,0,1,0
2.903398450,0,0,0,0,1,0,0,0,1,1
2.903407100,0,0,0,0,1,0,0,0,1,0
2.903484850,0,0,0,0,1,0,0,0,1,1
2.903504800,0,0,0,0,1,0,0,1,1,1
2.903505150,1,0,0,1,0,1,0,0,1,1
